! Touchstone file generated by Optenni Lab on 2018-12-13T14:23:28
# Hz S DB R 50
! freq Sij(magDB angle)
3e+08 -0.0148221 -7.12459 -28.0253 79.1669 -27.3724 82.9647 
-27.9612 78.5093 -0.0925443 -23.553 -16.9727 70.9331 
-27.3744 83.3176 -16.9195 71.3491 -0.100572 -14.685 
3.027e+08 -0.0152136 -7.19058 -27.9262 79.0095 -27.2941 82.9092 
-27.8746 78.3207 -0.0973916 -23.8532 -16.8625 70.7294 
-27.2906 83.2606 -16.8009 71.0754 -0.102945 -14.8402 
3.054e+08 -0.0156052 -7.25656 -27.8281 78.8515 -27.2167 82.8526 
-27.7892 78.1413 -0.102356 -24.1541 -16.7517 70.5318 
-27.2078 83.199 -16.6837 70.8012 -0.105292 -14.9965 
3.081e+08 -0.0159968 -7.32253 -27.731 78.6937 -27.1402 82.795 
-27.7048 77.9714 -0.107367 -24.4556 -16.6402 70.3394 
-27.1261 83.1331 -16.5679 70.528 -0.107631 -15.1542 
3.108e+08 -0.0163884 -7.3885 -27.635 78.5366 -27.0648 82.7368 
-27.6213 77.8114 -0.112372 -24.758 -16.5278 70.151 
-27.0454 83.0632 -16.4533 70.2569 -0.109979 -15.3132 
3.135e+08 -0.01678 -7.45446 -27.5397 78.3808 -26.9903 82.6783 
-27.5383 77.6614 -0.117301 -25.0614 -16.4144 69.9653 
-26.9659 82.9897 -16.3397 69.9888 -0.112346 -15.4738 
3.162e+08 -0.0171716 -7.52044 -27.4452 78.2267 -26.9169 82.6198 
-27.4557 77.5213 -0.122118 -25.3661 -16.2998 69.7809 
-26.8877 82.9129 -16.227 69.7245 -0.114757 -15.6359 
3.189e+08 -0.0175545 -7.58643 -27.3514 78.0748 -26.8445 82.5617 
-27.3732 77.3911 -0.126762 -25.6724 -16.1841 69.5963 
-26.8107 82.8334 -16.115 69.4647 -0.117213 -15.7996 
3.216e+08 -0.0179288 -7.65244 -27.2581 77.9251 -26.773 82.5044 
-27.2907 77.2704 -0.131196 -25.9808 -16.0671 69.4101 
-26.7351 82.7516 -16.0035 69.2097 -0.119749 -15.9649 
3.243e+08 -0.0183031 -7.71848 -27.1653 77.7778 -26.7026 82.4482 
-27.2079 77.1586 -0.135394 -26.2918 -15.949 69.2209 
-26.6608 82.668 -15.8923 68.9598 -0.122374 -16.1319 
3.27e+08 -0.0186687 -7.78457 -27.0727 77.6329 -26.6331 82.3935 
-27.1247 77.0553 -0.139339 -26.6056 -15.8297 69.0273 
-26.5879 82.5832 -15.7812 68.7147 -0.125114 -16.3005 
3.297e+08 -0.0190343 -7.8507 -26.9804 77.4903 -26.5645 82.3405 
-27.0408 76.9596 -0.14302 -26.923 -15.7092 68.8279 
-26.5164 82.4978 -15.6699 68.4744 -0.127978 -16.4708 
3.324e+08 -0.0193912 -7.91689 -26.8881 77.3496 -26.4969 82.2896 
-26.9561 76.8707 -0.146438 -27.2443 -15.5877 68.6216 
-26.4463 82.4122 -15.5583 68.2382 -0.130984 -16.6427 
3.351e+08 -0.0197394 -7.98315 -26.7958 77.2106 -26.4301 82.2411 
-26.8705 76.7876 -0.149601 -27.5701 -15.4654 68.4075 
-26.3776 82.3272 -15.4462 68.0056 -0.134159 -16.8161 
3.378e+08 -0.0200876 -8.04948 -26.7034 77.0728 -26.3641 82.1952 
-26.7838 76.7092 -0.152536 -27.9008 -15.3424 68.1846 
-26.3103 82.2433 -15.3335 67.7757 -0.137503 -16.9911 
3.405e+08 -0.0204272 -8.1159 -26.6108 76.9357 -26.2989 82.1521 
-26.6959 76.6344 -0.155276 -28.2369 -15.2187 67.9523 
-26.2444 82.161 -15.22 67.5475 -0.141043 -17.1675 
3.432e+08 -0.020758 -8.18241 -26.518 76.7986 -26.2344 82.1119 
-26.6068 76.5618 -0.157859 -28.5788 -15.0945 67.71 
-26.1798 82.0809 -15.1057 67.32 -0.144778 -17.3453 
3.459e+08 -0.0210889 -8.24902 -26.4249 76.6611 -26.1706 82.0747 
-26.5163 76.4903 -0.160327 -28.9269 -14.9702 67.4575 
-26.1166 82.0037 -14.9903 67.0921 -0.148726 -17.5243 
3.486e+08 -0.0214197 -8.31575 -26.3314 76.5223 -26.1074 82.0406 
-26.4244 76.4186 -0.162743 -29.2816 -14.8457 67.1947 
-26.0546 81.9298 -14.874 66.8625 -0.15288 -17.7046 
3.513e+08 -0.0217506 -8.38258 -26.2376 76.3818 -26.0447 82.0095 
-26.3311 76.3453 -0.165168 -29.643 -14.7213 66.9217 
-25.9939 81.8597 -14.7567 66.6301 -0.157257 -17.886 
3.54e+08 -0.0220728 -8.44954 -26.1434 76.2387 -25.9825 81.9815 
-26.2364 76.2692 -0.167656 -30.0114 -14.5971 66.6387 
-25.9344 81.794 -14.6384 66.3938 -0.161849 -18.0684 
3.567e+08 -0.022395 -8.51662 -26.0489 76.0926 -25.9208 81.9564 
-26.1404 76.1889 -0.170277 -30.387 -14.4733 66.3461 
-25.8759 81.733 -14.5191 66.1525 -0.166655 -18.2518 
3.594e+08 -0.0227259 -8.58384 -25.9542 75.9428 -25.8595 81.9341 
-26.0431 76.1033 -0.173095 -30.7698 -14.35 66.0445 
-25.8186 81.6771 -14.3989 65.9052 -0.171677 -18.436 
3.621e+08 -0.0230482 -8.65119 -25.8591 75.7889 -25.7985 81.9145 
-25.9444 76.0113 -0.17617 -31.1599 -14.2273 65.7346 
-25.7621 81.6268 -14.278 65.6509 -0.176906 -18.6211 
3.648e+08 -0.0233791 -8.71868 -25.7639 75.6303 -25.7379 81.8974 
-25.8447 75.9118 -0.179556 -31.5571 -14.1053 65.4171 
-25.7066 81.5824 -14.1563 65.3891 -0.182341 -18.8069 
3.675e+08 -0.0237188 -8.78631 -25.6684 75.4667 -25.6776 81.8824 
-25.7439 75.8038 -0.183308 -31.9615 -13.984 65.093 
-25.6519 81.544 -14.034 65.119 -0.187967 -18.9935 
3.702e+08 -0.0240585 -8.85409 -25.5729 75.2979 -25.6175 81.8696 
-25.6421 75.6864 -0.18747 -32.3729 -13.8636 64.7631 
-25.5979 81.5119 -13.9114 64.8402 -0.193765 -19.1808 
3.729e+08 -0.0244156 -8.922 -25.4774 75.1237 -25.5578 81.8585 
-25.5395 75.559 -0.192095 -32.7911 -13.744 64.4283 
-25.5445 81.4862 -13.7883 64.5526 -0.199744 -19.3688 
3.756e+08 -0.0247727 -8.99005 -25.382 74.9439 -25.4983 81.8489 
-25.4363 75.4208 -0.197194 -33.216 -13.6252 64.0896 
-25.4917 81.4671 -13.6651 64.2559 -0.205879 -19.5576 
3.783e+08 -0.0251386 -9.05824 -25.2866 74.7585 -25.4391 81.8407 
-25.3326 75.2714 -0.202811 -33.6473 -13.5071 63.748 
-25.4394 81.4545 -13.5418 63.9503 -0.21217 -19.747 
3.81e+08 -0.0255219 -9.12657 -25.1915 74.5676 -25.3802 81.8337 
-25.2284 75.1104 -0.208939 -34.0848 -13.3899 63.4042 
-25.3874 81.4484 -13.4186 63.6359 -0.218598 -19.9373 
3.837e+08 -0.0259052 -9.19504 -25.0966 74.3714 -25.3215 81.8275 
-25.1241 74.9375 -0.215597 -34.5283 -13.2733 63.0591 
-25.3357 81.4488 -13.2955 63.313 -0.225156 -20.1284 
3.864e+08 -0.0263146 -9.26363 -25.0019 74.1701 -25.2632 81.8222 
-25.0197 74.7526 -0.222768 -34.9777 -13.1572 62.7135 
-25.2841 81.4556 -13.1727 62.9822 -0.231845 -20.3205 
3.891e+08 -0.0267328 -9.33234 -24.9077 73.9639 -25.2052 81.8175 
-24.9154 74.5558 -0.230444 -35.4326 -13.0417 62.3678 
-25.2327 81.4684 -13.0503 62.6439 -0.238636 -20.5136 
3.918e+08 -0.0271685 -9.40118 -24.8137 73.7532 -25.1476 81.8134 
-24.8113 74.3471 -0.238609 -35.893 -12.9264 62.0227 
-25.1814 81.4871 -12.9282 62.2988 -0.245549 -20.7078 
3.945e+08 -0.0276129 -9.47013 -24.7202 73.5383 -25.0903 81.8098 
-24.7076 74.1268 -0.24722 -36.3589 -12.8114 61.6784 
-25.13 81.5115 -12.8066 61.9475 -0.252566 -20.9033 
3.972e+08 -0.0280834 -9.53919 -24.6271 73.3196 -25.0335 81.8067 
-24.6045 73.8951 -0.256251 -36.8301 -12.6965 61.3353 
-25.0785 81.541 -12.6854 61.5908 -0.259704 -21.1001 
3.999e+08 -0.0285627 -9.60835 -24.5344 73.0974 -24.9772 81.8042 
-24.5019 73.6526 -0.265658 -37.3066 -12.5814 60.9934 
-25.0269 81.5755 -12.5646 61.2292 -0.266948 -21.2985 
4.026e+08 -0.0290594 -9.6776 -24.442 72.8722 -24.9213 81.8024 
-24.4001 73.3997 -0.275398 -37.7887 -12.4661 60.6526 
-24.9751 81.6144 -12.4443 60.8636 -0.274313 -21.4986 
4.053e+08 -0.0295823 -9.74695 -24.35 72.6441 -24.866 81.8015 
-24.2992 73.137 -0.285428 -38.2763 -12.3505 60.3127 
-24.9231 81.6574 -12.3243 60.4944 -0.281811 -21.7004 
4.08e+08 -0.030114 -9.81637 -24.2583 72.4137 -24.8113 81.8015 
-24.1991 72.8651 -0.295693 -38.7697 -12.2343 59.9735 
-24.8708 81.704 -12.2047 60.1224 -0.289441 -21.9042 
4.107e+08 -0.0306631 -9.88587 -24.1669 72.181 -24.7572 81.8028 
-24.1001 72.5848 -0.306151 -39.2692 -12.1174 59.6343 
-24.8182 81.7538 -12.0853 59.7479 -0.297239 -22.11 
4.134e+08 -0.0312297 -9.95545 -24.0757 71.9464 -24.7036 81.8057 
-24.0022 72.2968 -0.316766 -39.7752 -11.9998 59.2946 
-24.7653 81.8062 -11.966 59.3714 -0.305215 -22.3181 
4.161e+08 -0.0318225 -10.0251 -23.9847 71.71 -24.6507 81.8104 
-23.9053 72.0019 -0.327492 -40.2881 -11.8814 58.9536 
-24.7121 81.8609 -11.8468 58.9931 -0.313388 -22.5285 
4.188e+08 -0.0324241 -10.0948 -23.8937 71.4717 -24.5985 81.8172 
-23.8096 71.7008 -0.338296 -40.8083 -11.7619 58.6106 
-24.6586 81.9174 -11.7275 58.6133 -0.321776 -22.7412 
4.215e+08 -0.0330431 -10.1645 -23.8028 71.2317 -24.5469 81.8266 
-23.7151 71.3944 -0.349157 -41.3365 -11.6414 58.2647 
-24.6048 81.9753 -11.608 58.2319 -0.330415 -22.9566 
4.242e+08 -0.0336796 -10.2343 -23.7118 70.9898 -24.496 81.839 
-23.6217 71.0835 -0.36006 -41.873 -11.5198 57.915 
-24.5508 82.0341 -11.4882 57.8489 -0.339334 -23.1745 
4.269e+08 -0.0343249 -10.3042 -23.6206 70.7459 -24.4457 81.8547 
-23.5294 70.7688 -0.370985 -42.4188 -11.397 57.5603 
-24.4966 82.0935 -11.3681 57.464 -0.348561 -23.395 
4.296e+08 -0.0349876 -10.374 -23.5293 70.4997 -24.3961 81.8741 
-23.4382 70.4511 -0.381943 -42.9742 -11.2731 57.1999 
-24.4421 82.1532 -11.2474 57.077 -0.358114 -23.6182 
4.323e+08 -0.0356679 -10.444 -23.4378 70.251 -24.347 81.8977 
-23.3481 70.1312 -0.392941 -43.5401 -11.1481 56.8326 
-24.3876 82.2128 -11.126 56.6873 -0.36804 -23.8442 
4.35e+08 -0.0363569 -10.5139 -23.3459 69.9994 -24.2986 81.9257 
-23.259 69.8097 -0.40399 -44.1172 -11.0219 56.4576 
-24.3329 82.2722 -11.004 56.2945 -0.378367 -24.0728 
4.377e+08 -0.0370635 -10.5839 -23.2537 69.7444 -24.2507 81.9586 
-23.1707 69.4873 -0.415135 -44.706 -10.8946 56.074 
-24.2782 82.3312 -10.8812 55.8979 -0.389125 -24.3042 
4.404e+08 -0.0377788 -10.654 -23.1611 69.4856 -24.2033 81.9968 
-23.0833 69.1645 -0.426413 -45.3073 -10.7664 55.6808 
-24.2236 82.3896 -10.7575 55.4967 -0.400351 -24.5382 
4.431e+08 -0.0385029 -10.7241 -23.0681 69.2225 -24.1563 82.0405 
-22.9967 68.8418 -0.43786 -45.9218 -10.6372 55.2774 
-24.1691 82.4474 -10.6329 55.0902 -0.412065 -24.7748 
4.458e+08 -0.0392358 -10.7942 -22.9746 68.9545 -24.1098 82.0901 
-22.9106 68.5196 -0.449552 -46.5501 -10.5071 54.863 
-24.1147 82.5047 -10.5074 54.6777 -0.424296 -25.0139 
4.485e+08 -0.0399775 -10.8644 -22.8806 68.6811 -24.0636 82.1457 
-22.8251 68.1983 -0.461543 -47.1927 -10.3763 54.4371 
-24.0606 82.5615 -10.3809 54.2582 -0.437084 -25.2556 
4.512e+08 -0.0407279 -10.9346 -22.7862 68.4017 -24.0176 82.2077 
-22.74 67.8781 -0.473908 -47.8503 -10.2448 53.9993 
-24.0068 82.6179 -10.2535 53.8309 -0.450457 -25.4995 
4.539e+08 -0.0414872 -11.0049 -22.6914 68.1158 -23.9719 82.2762 
-22.6551 67.5592 -0.486714 -48.5234 -10.1128 53.5491 
-23.9533 82.6743 -10.1251 53.3951 -0.464429 -25.7458 
4.566e+08 -0.0422552 -11.0752 -22.5961 67.8229 -23.9264 82.3513 
-22.5704 67.2416 -0.500045 -49.2124 -9.98035 53.0864 
-23.9003 82.7308 -9.99582 52.9499 -0.479019 -25.9942 
4.593e+08 -0.0430321 -11.1456 -22.5004 67.5224 -23.8809 82.4331 
-22.4856 66.9251 -0.513977 -49.9178 -9.84755 52.611 
-23.8478 82.788 -9.86571 52.4946 -0.49426 -26.2446 
4.62e+08 -0.043809 -11.2161 -22.4044 67.2139 -23.8355 82.5217 
-22.4008 66.6098 -0.528586 -50.64 -9.71452 52.1228 
-23.7958 82.8461 -9.73477 52.0286 -0.510171 -26.497 
4.647e+08 -0.0445947 -11.2866 -22.308 66.8969 -23.7901 82.6171 
-22.3156 66.2952 -0.54396 -51.3794 -9.58135 51.6219 
-23.7445 82.9057 -9.60313 51.5512 -0.526758 -26.7512 
4.674e+08 -0.0453892 -11.3572 -22.2114 66.5712 -23.7445 82.7193 
-22.2301 65.9809 -0.560167 -52.1361 -9.44815 51.1084 
-23.6938 82.9674 -9.47084 51.062 -0.544043 -27.0071 
4.701e+08 -0.0461926 -11.4279 -22.1146 66.2362 -23.6988 82.8282 
-22.1441 65.6666 -0.577286 -52.9107 -9.31496 50.5825 
-23.6437 83.0317 -9.33796 50.5605 -0.562038 -27.2646 
4.728e+08 -0.046996 -11.4988 -22.0176 65.8919 -23.6528 82.9437 
-22.0574 65.3515 -0.595369 -53.7032 -9.18188 50.0446 
-23.5943 83.0994 -9.20463 50.0464 -0.580768 -27.5237 
4.755e+08 -0.0478169 -11.5697 -21.9205 65.5378 -23.6066 83.0659 
-21.97 65.035 -0.614487 -54.5141 -9.04896 49.4949 
-23.5457 83.1711 -9.0709 49.5195 -0.600226 -27.7841 
4.782e+08 -0.0486379 -11.6407 -21.8234 65.174 -23.5602 83.1946 
-21.8817 64.7162 -0.634694 -55.3434 -8.9162 48.9337 
-23.4977 83.2476 -8.93688 48.9795 -0.620428 -28.046 
4.809e+08 -0.0494678 -11.7119 -21.7263 64.8002 -23.5133 83.3297 
-21.7925 64.3944 -0.656035 -56.1915 -8.7837 48.3614 
-23.4504 83.3296 -8.80263 48.4263 -0.641406 -28.3092 
4.836e+08 -0.0503064 -11.7831 -21.6293 64.4163 -23.4661 83.471 
-21.7023 64.0686 -0.678546 -57.0586 -8.6514 47.7783 
-23.4038 83.418 -8.66823 47.8601 -0.663148 -28.5736 
4.863e+08 -0.0511626 -11.8545 -21.5324 64.0224 -23.4185 83.6186 
-21.6111 63.7377 -0.702264 -57.9449 -8.51935 47.1849 
-23.3578 83.5135 -8.53375 47.2807 -0.685677 -28.8393 
4.89e+08 -0.0520276 -11.9261 -21.4356 63.6184 -23.3704 83.7724 
-21.5187 63.4007 -0.727218 -58.851 -8.38752 46.5812 
-23.3123 83.617 -8.39926 46.6883 -0.709009 -29.1063 
4.917e+08 -0.0529015 -11.9978 -21.339 63.2043 -23.3218 83.9322 
-21.4252 63.0565 -0.753409 -59.777 -8.25586 45.9678 
-23.2674 83.7293 -8.26477 46.083 -0.73317 -29.3744 
4.944e+08 -0.0537929 -12.0696 -21.2427 62.7801 -23.2727 84.0981 
-21.3306 62.7039 -0.780867 -60.7235 -8.12438 45.3446 
-23.2228 83.8512 -8.13038 45.4649 -0.758166 -29.6438 
4.971e+08 -0.0547019 -12.1416 -21.1466 62.3458 -23.2231 84.2701 
-21.2348 62.3418 -0.809585 -61.6909 -7.99302 44.7119 
-23.1786 83.9834 -7.99608 44.8342 -0.784042 -29.9145 
4.998e+08 -0.0556285 -12.2137 -21.0508 61.9015 -23.173 84.4482 
-21.138 61.969 -0.839575 -62.6798 -7.86172 44.0696 
-23.1345 84.1267 -7.86189 44.1909 -0.810805 -30.1864 
5.025e+08 -0.0565814 -12.286 -20.9552 61.4471 -23.1223 84.6326 
-21.04 61.5843 -0.87082 -63.6909 -7.73042 43.4179 
-23.0905 84.2817 -7.72781 43.5354 -0.838503 -30.4596 
5.052e+08 -0.0575431 -12.3584 -20.86 60.9827 -23.0709 84.8232 
-20.9411 61.1866 -0.903335 -64.7249 -7.59907 42.7564 
-23.0464 84.4492 -7.59388 42.8675 -0.867172 -30.7342 
5.079e+08 -0.0585399 -12.431 -20.765 60.5081 -23.0189 85.0203 
-20.8413 60.7749 -0.937105 -65.7826 -7.46759 42.0849 
-23.002 84.6296 -7.46006 42.1873 -0.896842 -31.01 
5.106e+08 -0.0595544 -12.5037 -20.6703 60.0233 -22.9662 85.2241 
-20.7406 60.348 -0.972132 -66.8649 -7.33595 41.4033 
-22.9572 84.8234 -7.32635 41.4949 -0.927589 -31.2872 
5.133e+08 -0.0605952 -12.5766 -20.576 59.528 -22.9128 85.4346 
-20.6393 59.9049 -1.0084 -67.973 -7.20406 40.7109 
-22.9117 85.031 -7.1927 40.7901 -0.959445 -31.5656 
5.16e+08 -0.0616711 -12.6496 -20.4819 59.0222 -22.8586 85.6522 
-20.5373 59.4447 -1.04595 -69.1078 -7.07191 40.0073 
-22.8655 85.2526 -7.05911 40.0728 -0.992479 -31.8453 
5.187e+08 -0.0627734 -12.7228 -20.388 58.5055 -22.8035 85.8771 
-20.4349 58.9665 -1.08474 -70.2707 -6.9394 39.2918 
-22.8182 85.4884 -6.92556 39.3427 -1.02675 -32.1262 
5.214e+08 -0.0639108 -12.7961 -20.2945 57.9776 -22.7474 86.1094 
-20.3321 58.4695 -1.12481 -71.463 -6.80656 38.5638 
-22.7696 85.7384 -6.79203 38.5995 -1.06234 -32.4081 
5.241e+08 -0.0650834 -12.8694 -20.2012 57.4383 -22.6903 86.3494 
-20.2293 57.9531 -1.16618 -72.6861 -6.67335 37.8225 
-22.7196 86.0024 -6.65847 37.8429 -1.09932 -32.6909 
5.268e+08 -0.0662911 -12.9429 -20.1083 56.887 -22.6321 86.5972 
-20.1264 57.4165 -1.2089 -73.9414 -6.53973 37.0671 
-22.6679 86.2802 -6.5249 37.0723 -1.13777 -32.9744 
5.295e+08 -0.0675428 -13.0165 -20.0156 56.3233 -22.5726 86.8529 
-20.0237 56.8593 -1.25297 -75.2306 -6.40576 36.2966 
-22.6142 86.5713 -6.39128 36.2872 -1.17778 -33.2583 
5.322e+08 -0.068821 -13.0902 -19.9232 55.7468 -22.5117 87.1167 
-19.9214 56.281 -1.29847 -76.5552 -6.27144 35.5102 
-22.5583 86.8751 -6.25763 35.487 -1.21942 -33.5424 
5.349e+08 -0.0701518 -13.1639 -19.8312 55.1568 -22.4493 87.3886 
-19.8197 55.6812 -1.34546 -77.917 -6.13681 34.7068 
-22.5001 87.1909 -6.12397 34.671 -1.26281 -33.8261 
5.376e+08 -0.0715179 -13.2376 -19.7396 54.5527 -22.3853 87.6683 
-19.7187 55.0598 -1.394 -79.3178 -6.00193 33.8857 
-22.4392 87.5176 -5.9903 33.8386 -1.30802 -34.109 
5.403e+08 -0.072928 -13.3114 -19.6484 53.9341 -22.3193 87.9558 
-19.6186 54.4166 -1.44418 -80.7594 -5.86689 33.0457 
-22.3754 87.8543 -5.85669 32.989 -1.35516 -34.3906 
5.43e+08 -0.0743822 -13.3853 -19.5577 53.3002 -22.2514 88.2507 
-19.5196 53.7514 -1.49608 -82.2435 -5.73179 32.1861 
-22.3087 88.1996 -5.72317 32.1212 -1.40432 -34.6703 
5.457e+08 -0.0758804 -13.4591 -19.4676 52.6504 -22.1814 88.5526 
-19.4219 53.0643 -1.5498 -83.772 -5.59673 31.3058 
-22.2387 88.5522 -5.5898 31.2348 -1.45558 -34.9473 
5.484e+08 -0.0774139 -13.5329 -19.3782 51.9842 -22.1089 88.8609 
-19.3257 52.3555 -1.60544 -85.3468 -5.46182 30.4041 
-22.1653 88.9104 -5.45669 30.3287 -1.50905 -35.2209 
5.511e+08 -0.0790002 -13.6066 -19.2895 51.3009 -22.034 89.1749 
-19.2312 51.625 -1.66311 -86.9699 -5.32724 29.4802 
-22.0884 89.2726 -5.32394 29.4023 -1.56479 -35.4901 
5.538e+08 -0.0806307 -13.6803 -19.2017 50.6 -21.9564 89.4938 
-19.1385 50.8732 -1.72292 -88.643 -5.19314 28.5335 
-22.0078 89.6371 -5.19164 28.4549 -1.62291 -35.754 
5.565e+08 -0.0822966 -13.7539 -19.1149 49.881 -21.8759 89.8164 
-19.0478 50.1003 -1.78499 -90.368 -5.05969 27.5632 
-21.9235 90.0018 -5.05994 27.4857 -1.68345 -36.0114 
5.592e+08 -0.0840154 -13.8274 -19.0293 49.1433 -21.7924 90.1415 
-18.9593 49.3068 -1.84942 -92.1468 -4.92705 26.5689 
-21.8354 90.3649 -4.92898 26.4941 -1.74649 -36.2613 
5.619e+08 -0.0857696 -13.9008 -18.9449 48.3867 -21.7057 90.4678 
-18.8732 48.4932 -1.91631 -93.9813 -4.79544 25.5502 
-21.7434 90.7243 -4.79894 25.4796 -1.81209 -36.5022 
5.646e+08 -0.0875593 -13.9741 -18.862 47.6108 -21.6158 90.7939 
-18.7895 47.6598 -1.98577 -95.8732 -4.66504 24.5067 
-21.6476 91.0781 -4.66996 24.4416 -1.88029 -36.7329 
5.673e+08 -0.0893933 -14.0472 -18.7807 46.8152 -21.5225 91.1181 
-18.7085 46.8074 -2.05787 -97.8243 -4.53605 23.4383 
-21.548 91.424 -4.54223 23.3798 -1.95109 -36.9519 
5.7e+08 -0.0912627 -14.1202 -18.7013 45.9999 -21.4258 91.4387 
-18.6303 45.9364 -2.13268 -99.8363 -4.40871 22.3449 
-21.4446 91.7603 -4.41595 22.294 -2.02452 -37.1576 
5.727e+08 -0.0931676 -14.1929 -18.6237 45.1647 -21.3255 91.7537 
-18.5551 45.0476 -2.21025 -101.911 -4.28319 21.2264 
-21.3375 92.0847 -4.2913 21.1839 -2.10057 -37.3485 
5.754e+08 -0.0950994 -14.2655 -18.5484 44.3097 -21.2217 92.0615 
-18.4829 44.1416 -2.29062 -104.05 -4.15971 20.0831 
-21.2268 92.3955 -4.16849 20.0494 -2.17921 -37.5227 
5.781e+08 -0.0970666 -14.3378 -18.4753 43.4349 -21.1143 92.3598 
-18.4138 43.2192 -2.37378 -106.255 -4.0385 18.9151 
-21.1127 92.6907 -4.04774 18.8905 -2.2604 -37.6786 
5.808e+08 -0.0990607 -14.4099 -18.4049 42.5405 -21.0034 92.6469 
-18.3481 42.2811 -2.45972 -108.528 -3.91975 17.7227 
-20.9954 92.9688 -3.92923 17.7074 -2.34405 -37.8144 
5.835e+08 -0.101082 -14.4817 -18.3372 41.627 -20.8892 92.9206 
-18.2858 41.3282 -2.54836 -110.869 -3.80366 16.5065 
-20.8749 93.2279 -3.8132 16.5004 -2.43006 -37.9281 
5.862e+08 -0.103112 -14.5533 -18.2724 40.6945 -20.7715 93.1792 
-18.2271 40.3611 -2.6396 -113.281 -3.69044 15.2669 
-20.7516 93.4668 -3.69983 15.2698 -2.5183 -38.0178 
5.889e+08 -0.105169 -14.6246 -18.2108 39.7437 -20.6507 93.4205 
-18.1719 39.3807 -2.73332 -115.765 -3.58027 14.0045 
-20.6256 93.6841 -3.58934 14.016 -2.60862 -38.0817 
5.916e+08 -0.107244 -14.6957 -18.1525 38.7751 -20.5268 93.6429 
-18.1205 38.388 -2.8293 -118.321 -3.47335 12.7201 
-20.4972 93.8785 -3.4819 12.7396 -2.70081 -38.1178 
5.943e+08 -0.109319 -14.7665 -18.0976 37.7894 -20.4001 93.8447 
-18.0729 37.3837 -2.92735 -120.952 -3.36982 11.4145 
-20.3666 94.0492 -3.37774 11.4412 -2.79465 -38.1242 
5.97e+08 -0.111413 -14.8369 -18.0465 36.7874 -20.2708 94.0242 
-18.0291 36.3687 -3.02714 -123.658 -3.26988 10.0884 
-20.2341 94.1951 -3.27704 10.1217 -2.88988 -38.0992 
5.997e+08 -0.113499 -14.9071 -17.9991 35.7699 -20.139 94.1801 
-17.9893 35.3439 -3.12834 -126.439 -3.1737 8.74284 
-20.1 94.3158 -3.17995 8.78172 -2.98621 -38.0409 
6.024e+08 -0.115593 -14.9771 -17.9558 34.7378 -20.0051 94.3112 
-17.9535 34.3102 -3.23056 -129.296 -3.08139 7.37878 
-19.9645 94.4105 -3.08667 7.42231 -3.08329 -37.9477 
6.051e+08 -0.11768 -15.0467 -17.9166 33.6921 -19.8693 94.4163 
-17.9217 33.2685 -3.33335 -132.23 -2.9931 5.99723 
-19.8279 94.479 -2.99735 6.04443 -3.18074 -37.8181 
6.078e+08 -0.119758 -15.116 -17.8818 32.634 -19.732 94.4946 
-17.8941 32.2198 -3.43616 -135.239 -2.90898 4.59927 
-19.6905 94.5211 -2.91213 4.64912 -3.27815 -37.6507 
6.105e+08 -0.121827 -15.1851 -17.8513 31.5645 -19.5933 94.5453 
-17.8707 31.1649 -3.53845 -138.325 -2.82912 3.18602 
-19.5524 94.5366 -2.83116 3.23748 -3.3751 -37.4444 
6.132e+08 -0.12388 -15.2539 -17.8255 30.4849 -19.4537 94.568 
-17.8515 30.1048 -3.63959 -141.485 -2.75365 1.75864 
