! TOUCHSTONE file generated by CST MICROWAVE STUDIO
! Date and time: Fri Jun 12 09:03:45 2026
! Project name: D-0001701866_01-XY+0 Z+1.4 W26 SPK-0528-baseline-SPK HSG - NMT Lengthen-2 - 3 - op2.cst
! Header version: 2024
! Port assignment regex: !\s*Touchstone port\s*([0-9]+)\s*=\s*(CST MWS port|CST DES external port|CST DES block port)\s*(.+)\s* \(\"(.*)\"\)(\s*mode\s*([0-9]+))?.*
! Touchstone port assignment:
! Touchstone port 1 = CST MWS port 1 ("")
! Touchstone port 2 = CST MWS port 2 ("")
# GHz S MA R 50
0                      0.9994141             180     0.0001992513              -0     0.0005037719              -0        0.9993407             180
0.004                  0.9994035         179.406      0.003187703        85.90685      0.003155628        80.43245        0.9993389         179.553
0.008                  0.9993716        178.8121      0.006366611        87.18661      0.006254167        84.61309        0.9993333        179.1059
0.012                  0.9993187        178.2183      0.009548634        87.27193      0.009372946        85.75924        0.9993231        178.6586
0.016                  0.9992449        177.6248       0.01273257        87.05573       0.01250492        86.12716        0.9993071        178.2109
0.02                   0.9991509        177.0316        0.0159183        86.71647       0.01565047        86.17293        0.9992834        177.7629
0.024                  0.9990374        176.4388       0.01910568        86.31346       0.01881065        86.04766          0.99925        177.3144
0.028                  0.9989051        175.8465       0.02229439        85.87202       0.02198613        85.81543         0.999205        176.8655
0.032                  0.9987549        175.2547        0.0254839        85.40497       0.02517688        85.50797        0.9991457        176.4161
0.036                  0.9985882        174.6635       0.02867346        84.91961       0.02838209        85.14304          0.99907        175.9663
0.04                   0.9984061        174.0729       0.03186215        84.42068       0.03160019        84.73181         0.998976        175.5162
0.044                  0.9982101        173.4831       0.03504892        83.91155       0.03482888        84.28203        0.9988617        175.0659
0.048                  0.9980021         172.894       0.03823264        83.39483       0.03806525        83.79974         0.998726        174.6155
0.052                  0.9977837        172.3056       0.04141219        82.87274       0.04130591        83.29007        0.9985678        174.1652
0.056                  0.9975567         171.718       0.04458652        82.34723       0.04454713        82.75768        0.9983872        173.7151
0.06                    0.997323        171.1311       0.04775474        81.81999       0.04778507        82.20696        0.9981844        173.2653
0.064                  0.9970842        170.5449       0.05091616        81.29257       0.05101588        81.64213        0.9979603        172.8161
0.068                  0.9968416        169.9593       0.05407039        80.76626       0.05423598        81.06728        0.9977162        172.3675
0.072                  0.9965968        169.3742       0.05721732        80.24219       0.05744215        80.48626        0.9974548        171.9198
0.076                  0.9963508        168.7896       0.06035716        79.72127       0.06063173        79.90277        0.9971779        171.4729
0.08                   0.9961042        168.2053       0.06349048        79.20411       0.06380274         79.3202        0.9968886        171.0269
0.084                  0.9958572        167.6213       0.06661811        78.69107       0.06695396        78.74159        0.9965899         170.582
0.088                  0.9956097        167.0374       0.06974115        78.18227       0.07008504        78.16958        0.9962848         170.138
0.092                   0.995361        166.4536       0.07286087        77.67755       0.07319646        77.60639        0.9959763        169.6949
0.096                  0.9951102        165.8696       0.07597865        77.17653       0.07628956        77.05369        0.9956668        169.2526
0.1                    0.9948559        165.2855       0.07909589        76.67859        0.0793665        76.51265        0.9953589        168.8111
0.104                  0.9945962        164.7011        0.0822139        76.18301       0.08243006        75.98387        0.9950544        168.3701
0.108                  0.9943291        164.1165        0.0853338        75.68886       0.08548366         75.4674        0.9947545        167.9296
0.112                  0.9940524        163.5316       0.08845647         75.1952       0.08853104        74.96281        0.9944597        167.4892
0.116                  0.9937643        162.9464       0.09158245        74.70111       0.09157616        74.46915        0.9941699         167.049
0.12                   0.9934624         162.361       0.09471186        74.20564       0.09462304        73.98504        0.9938843        166.6085
0.124                  0.9931445        161.7754       0.09784447        73.70801       0.09767542        73.50877        0.9936014        166.1678
0.128                  0.9928096        161.1898        0.1009796        73.20752        0.1007367        73.03836        0.9933189        165.7267
0.132                  0.9924561        160.6043        0.1041162         72.7037        0.1038097        72.57163        0.9930346         165.285
0.136                  0.9920835         160.019        0.1072528        72.19626        0.1068964        72.10638        0.9927452        164.8428
0.14                   0.9916916         159.434        0.1103877        71.68511        0.1099981        71.64044        0.9924476        164.3998
0.144                  0.9912807        158.8495        0.1135193        71.17043        0.1131151        71.17177        0.9921385        163.9563
0.148                  0.9908522        158.2656        0.1166454        70.65255        0.1162468        70.69852        0.9918145        163.5121
0.152                  0.9904072        157.6824        0.1197644        70.13198        0.1193916        70.21917        0.9914729        163.0674
0.156                  0.9899478        157.1001        0.1228745        69.60946        0.1225471        69.73256         0.991111        162.6224
0.16                   0.9894764        156.5188        0.1259744        69.08575        0.1257102        69.23791        0.9907264        162.1771
0.164                  0.9889954        155.9383        0.1290629        68.56169        0.1288772        68.73481        0.9903181        161.7318
0.168                  0.9885075        155.3588        0.1321396        68.03817        0.1320439        68.22333        0.9898851        161.2867
0.172                  0.9880154        154.7802        0.1352043        67.51599         0.135206        67.70388        0.9894274        160.8419
0.176                  0.9875213        154.2024        0.1382575        66.99594        0.1383591        67.17724        0.9889458        160.3976
0.18                   0.9870273        153.6253        0.1412999        66.47862        0.1414992        66.64451        0.9884418        159.9542
0.184                  0.9865348        153.0488        0.1443331        65.96449        0.1446224        66.10703        0.9879174        159.5116
0.188                  0.9860447        152.4728        0.1473586        65.45384        0.1477257         65.5663        0.9873756          159.07
0.192                  0.9855572         151.897        0.1503785        64.94675        0.1508065        65.02397        0.9868193        158.6296
0.196                  0.9850719        151.3214        0.1533948        64.44309        0.1538636        64.48168        0.9862522        158.1904
0.2                    0.9845878        150.7457        0.1564099        63.94255        0.1568963        63.94104        0.9856777        157.7524
0.204                  0.9841027        150.1698        0.1594256        63.44467        0.1599049        63.40357        0.9850994        157.3156
0.208                  0.9836146        149.5937        0.1624437         62.9488         0.162891        62.87059        0.9845204        156.8799
0.212                  0.9831204        149.0172        0.1654657         62.4542        0.1658567        62.34316        0.9839439        156.4451
0.216                  0.9826174        148.4403        0.1684924         61.9601        0.1688053        61.82215        0.9833722        156.0112
0.22                   0.9821021         147.863        0.1715241        61.46567        0.1717404        61.30803         0.982807        155.5779
0.224                  0.9815718        147.2855        0.1745607        60.97017        0.1746663        60.80102        0.9822491         155.145
0.228                  0.9810232        146.7077        0.1776011        60.47289        0.1775876        60.30093        0.9816988        154.7123
0.232                  0.9804545        146.1298        0.1806441         59.9733        0.1805087        59.80736        0.9811555        154.2797
0.236                  0.9798636         145.552        0.1836876        59.47096        0.1834342        59.31952        0.9806178        153.8469
0.24                   0.9792495        144.9745        0.1867293        58.96566         0.186368        58.83641        0.9800835        153.4137
0.244                  0.9786122        144.3975        0.1897666        58.45738        0.1893135        58.35686        0.9795496          152.98
0.248                  0.9779523        143.8212        0.1927967        57.94627        0.1922733        57.87952        0.9790129        152.5457
0.252                  0.9772712        143.2458        0.1958171        57.43267         0.195249        57.40301          0.97847        152.1107
0.256                  0.9765709        142.6714        0.1988251        56.91711        0.1982412         56.9259        0.9779168        151.6751
0.26                   0.9758548        142.0983        0.2018189        56.40023        0.2012496        56.44687        0.9773497        151.2388
0.264                  0.9751262        141.5264        0.2047967        55.88276        0.2042725        55.96473         0.976765         150.802
0.268                  0.9743886        140.9559        0.2077576         55.3655        0.2073075        55.47845        0.9761597        150.3648
0.272                  0.9736462        140.3868        0.2107014        54.84923        0.2103511        54.98725        0.9755313        149.9274
0.276                  0.9729026        139.8188        0.2136285        54.33474        0.2133993         54.4906        0.9748776        149.4899
0.28                    0.972161         139.252        0.2165401        53.82267        0.2164472        53.98828        0.9741978        149.0526
0.284                  0.9714247        138.6863         0.219438        53.31359          0.21949        53.48035        0.9734916        148.6157
0.288                  0.9706954        138.1212        0.2223246        52.80788        0.2225226        52.96714        0.9727595        148.1795
0.292                  0.9699747        137.5568        0.2252028        52.30576        0.2255401        52.44925        0.9720032        147.7442
0.296                  0.9692626        136.9926        0.2280758        51.80725         0.228538        51.92752        0.9712251          147.31
0.3                    0.9685583        136.4285        0.2309467        51.31216        0.2315126        51.40297         0.970428         146.877
0.304                  0.9678599        135.8642        0.2338187        50.82013        0.2344609        50.87675        0.9696159        146.4454
0.308                  0.9671651        135.2995        0.2366945        50.33062        0.2373808        50.35009        0.9687921        146.0153
0.312                    0.96647        134.7343        0.2395765        49.84298        0.2402717        49.82426        0.9679614        145.5866
0.316                  0.9657707        134.1684        0.2424664        49.35644        0.2431336        49.30047         0.967128        145.1594
0.32                   0.9650625        133.6018         0.245365        48.87019        0.2459681        48.77987        0.9662953        144.7336
0.324                  0.9643411        133.0345        0.2482726        48.38341        0.2487777        48.26342        0.9654674         144.309
0.328                  0.9636018        132.4667        0.2511881        47.89536         0.251566        47.75194         0.964647        143.8855
0.332                  0.9628406        131.8983        0.2541101        47.40532        0.2543374        47.24597        0.9638364        143.4628
0.336                  0.9620541        131.3297         0.257036        46.91279         0.257097        46.74585        0.9630369        143.0406
0.34                   0.9612401        130.7612        0.2599628        46.41738        0.2598501         46.2516        0.9622492        142.6189
0.344                  0.9603968        130.1928         0.262887        45.91891        0.2626025        45.76301        0.9614723        142.1971
0.348                  0.9595244        129.6251        0.2658047        45.41739        0.2653595        45.27963         0.960705        141.7752
0.352                  0.9586237        129.0582        0.2687122        44.91304        0.2681262         44.8007        0.9599448         141.353
0.356                   0.957697        128.4925        0.2716057        44.40625         0.270907        44.32534        0.9591883        140.9301
0.36                   0.9567472        127.9282        0.2744821        43.89761        0.2737054        43.85247        0.9584317        140.5064
0.364                  0.9557791        127.3655        0.2773386        43.38781        0.2765238        43.38091        0.9576707         140.082
0.368                  0.9547975        126.8045        0.2801736        42.87765        0.2793633        42.90947        0.9569007        139.6567
0.372                  0.9538077        126.2453        0.2829861        42.36797        0.2822239        42.43693         0.956117        139.2306
0.376                  0.9528153        125.6878        0.2857762         41.8596        0.2851042        41.96216        0.9553154        138.8037
0.38                   0.9518255        125.1319        0.2885452        41.35334        0.2880013        41.48419        0.9544919        138.3763
0.384                  0.9508431        124.5775        0.2912952        40.84986        0.2909116        41.00218         0.953643        137.9485
0.388                  0.9498725        124.0244        0.2940293        40.34972        0.2938301        40.51552         0.952766        137.5206
0.392                  0.9489165        123.4721        0.2967512        39.85329        0.2967514        40.02386        0.9518597        137.0928
0.396                  0.9479763        122.9204        0.2994653        39.36075        0.2996693        39.52709         0.950923        136.6654
0.4                    0.9470526        122.3689        0.3021762        38.87206        0.3025777        39.02538        0.9499571        136.2388
0.404                   0.946144        121.8171        0.3048886        38.38698        0.3054704        38.51913         0.948963        135.8132
0.408                  0.9452476        121.2649        0.3076067        37.90506        0.3083417        38.00898        0.9479434        135.3888
0.412                  0.9443596        120.7118        0.3103345        37.42567        0.3111866        37.49579        0.9469022         134.966
0.416                  0.9434748        120.1576         0.313075        36.94806        0.3140012        36.98055        0.9458431        134.5448
0.42                   0.9425874        119.6022        0.3158301        36.47137        0.3167824        36.46436        0.9447714        134.1254
0.424                  0.9416905        119.0455        0.3186009        35.99469        0.3195288        35.94843         0.943692        133.7078
0.428                  0.9407778        118.4876        0.3213869        35.51713        0.3222404         35.4339        0.9426101         133.292
0.432                  0.9398429        117.9284        0.3241868        35.03784        0.3249184        34.92192        0.9415306         132.878
0.436                  0.9388799        117.3683        0.3269976         34.5561        0.3275657        34.41349        0.9404584        132.4655
0.44                   0.9378841        116.8076        0.3298158        34.07134        0.3301865        33.90949        0.9393972        132.0543
0.444                  0.9368518        116.2466        0.3326368        33.58317        0.3327862        33.41058        0.9383501        131.6442
0.448                  0.9357812        115.6857        0.3354552        33.09145        0.3353707         32.9172        0.9373191        131.2348
0.452                  0.9346721        115.1254        0.3382657         32.5962        0.3379472        32.42953        0.9363049        130.8258
0.456                  0.9335257         114.566         0.341063        32.09772        0.3405228        31.94752        0.9353072        130.4169
0.46                   0.9323455         114.008         0.343842         31.5965        0.3431045         31.4708        0.9343241        130.0078
0.464                  0.9311359        113.4518        0.3465984        31.09322        0.3456994         30.9988        0.9333531        129.5981
0.468                  0.9299033        112.8976        0.3493289        30.58868        0.3483132        30.53069        0.9323899        129.1875
0.472                  0.9286545        112.3456        0.3520312        30.08381        0.3509512        30.06548        0.9314301         128.776
0.476                  0.9273975        111.7959        0.3547047        29.57956        0.3536171        29.60205        0.9304679        128.3632
0.48                     0.92614        111.2485          0.35735        29.07687         0.356313        29.13916        0.9294977        127.9491
0.484                  0.9248896        110.7031        0.3599693        28.57663        0.3590396        28.67559        0.9285134        127.5339
0.488                   0.923653        110.1595         0.362566         28.0796        0.3617957        28.21011         0.927509        127.1175
0.492                   0.922436        109.6173        0.3651449        27.58637        0.3645784        27.74164        0.9264792        126.7001
0.496                  0.9212426         109.076        0.3677119        27.09732        0.3673834         27.2692        0.9254195        126.2821
0.5                     0.920075        108.5352        0.3702731        26.61262        0.3702049        26.79203        0.9243259        125.8636
0.504                  0.9189335        107.9943        0.3728353        26.13217        0.3730359        26.30962         0.923196         125.445
0.508                  0.9178162        107.4527        0.3754052        25.65564        0.3758687        25.82169        0.9220286        125.0268
0.512                  0.9167189        106.9099        0.3779887        25.18246        0.3786952        25.32824        0.9208238        124.6093
0.516                   0.915636        106.3655        0.3805912        24.71186        0.3815073        24.82957        0.9195834        124.1929
0.52                   0.9145597        105.8191        0.3832165        24.24293         0.384297         24.3262          0.91831         123.778
