! Touchstone file generated by Optenni Lab on 2026-07-15T02:30:11
# Hz S RI R 50
! freq S11(real imag)
1e+08 -0.680261 0.718929
1.1e+08 -0.655362 0.740492
1.2e+08 -0.621537 0.767617
1.3e+08 -0.577171 0.800974
1.4e+08 -0.52584 0.835666
1.5e+08 -0.473497 0.866762
1.6e+08 -0.420615 0.893609
1.7e+08 -0.367988 0.91637
1.8e+08 -0.315417 0.935513
1.9e+08 -0.263927 0.950981
2e+08 -0.213471 0.963225
2.1e+08 -0.164254 0.972542
2.2e+08 -0.116152 0.979038
2.3e+08 -0.0694499 0.98268
2.4e+08 -0.0236987 0.984746
2.5e+08 0.0205443 0.984878
2.6e+08 0.063359 0.98345
2.7e+08 0.105093 0.980759
2.8e+08 0.145452 0.975385
2.9e+08 0.184178 0.968911
3e+08 0.221617 0.960234
3.1e+08 0.257173 0.95088
3.2e+08 0.291135 0.940088
3.3e+08 0.324022 0.929194
3.4e+08 0.355275 0.917213
3.5e+08 0.385694 0.904662
3.6e+08 0.414658 0.891274
3.7e+08 0.442443 0.877586
3.8e+08 0.469418 0.863324
3.9e+08 0.495719 0.848814
4e+08 0.520816 0.833623
4.1e+08 0.544588 0.8183
4.2e+08 0.566602 0.802781
4.3e+08 0.587022 0.787587
4.4e+08 0.606379 0.772782
4.5e+08 0.624326 0.757853
4.6e+08 0.641886 0.742887
4.7e+08 0.659012 0.727966
4.8e+08 0.675734 0.712347
4.9e+08 0.691898 0.696605
5e+08 0.707488 0.680502
5.1e+08 0.72359 0.66429
5.2e+08 0.738767 0.648123
5.3e+08 0.753634 0.63193
5.4e+08 0.767216 0.61588
5.5e+08 0.77976 0.599954
5.6e+08 0.791247 0.585095
5.7e+08 0.801558 0.570558
5.8e+08 0.81083 0.556654
5.9e+08 0.820107 0.542795
6e+08 0.829055 0.528677
6.1e+08 0.837699 0.514141
6.2e+08 0.846208 0.498972
6.3e+08 0.854556 0.484166
6.4e+08 0.86275 0.469871
6.5e+08 0.871426 0.455567
6.6e+08 0.880138 0.441255
6.7e+08 0.888975 0.426771
6.8e+08 0.897274 0.412292
6.9e+08 0.904629 0.398412
7e+08 0.911033 0.384687
7.1e+08 0.916809 0.371342
7.2e+08 0.922626 0.358228
7.3e+08 0.927723 0.344779
7.4e+08 0.932629 0.331088
7.5e+08 0.936996 0.316767
7.6e+08 0.941264 0.301928
7.7e+08 0.945131 0.286828
7.8e+08 0.948633 0.27138
7.9e+08 0.951873 0.256035
8e+08 0.954651 0.240359
8.1e+08 0.956332 0.22612
8.2e+08 0.957538 0.212737
8.3e+08 0.958678 0.20029
8.4e+08 0.959572 0.187753
8.5e+08 0.960071 0.175943
8.6e+08 0.960611 0.164411
8.7e+08 0.96079 0.153217
8.8e+08 0.961175 0.142513
8.9e+08 0.961624 0.131376
9e+08 0.961626 0.120065
9.1e+08 0.961431 0.108936
9.2e+08 0.961198 0.0979461
9.3e+08 0.961409 0.0869273
9.4e+08 0.962194 0.0757976
9.5e+08 0.96315 0.0649973
9.6e+08 0.963886 0.0547229
9.7e+08 0.964453 0.0434661
9.8e+08 0.964922 0.0323402
9.9e+08 0.96533 0.021087
1e+09 0.965929 0.00980961
1.01e+09 0.966138 -0.00210919
1.02e+09 0.965809 -0.0143728
1.03e+09 0.964673 -0.0275079
1.04e+09 0.962158 -0.0406187
1.05e+09 0.958158 -0.0532419
1.06e+09 0.952981 -0.0647055
1.07e+09 0.947151 -0.0743255
1.08e+09 0.94233 -0.0825783
1.09e+09 0.938663 -0.0900308
1.1e+09 0.937448 -0.0974957
1.11e+09 0.937391 -0.106138
1.12e+09 0.938042 -0.115663
1.13e+09 0.94037 -0.126935
1.14e+09 0.942539 -0.139566
1.15e+09 0.94399 -0.153466
1.16e+09 0.944816 -0.168541
1.17e+09 0.944265 -0.184797
1.18e+09 0.942136 -0.201861
1.19e+09 0.937834 -0.219711
1.2e+09 0.930761 -0.238153
1.21e+09 0.921149 -0.256637
1.22e+09 0.908842 -0.274619
1.23e+09 0.894158 -0.291966
1.24e+09 0.8778 -0.308143
1.25e+09 0.8603 -0.322605
1.26e+09 0.8423 -0.33488
1.27e+09 0.824161 -0.344717
1.28e+09 0.806911 -0.351788
1.29e+09 0.791118 -0.356919
1.3e+09 0.777438 -0.360527
1.31e+09 0.765624 -0.363414
1.32e+09 0.754781 -0.366689
1.33e+09 0.743457 -0.370669
1.34e+09 0.730004 -0.375017
1.35e+09 0.714557 -0.37858
1.36e+09 0.698468 -0.380474
1.37e+09 0.682603 -0.380558
1.38e+09 0.668641 -0.379131
1.39e+09 0.65671 -0.377186
1.4e+09 0.646581 -0.375457
1.41e+09 0.637941 -0.374257
1.42e+09 0.63109 -0.373425
1.43e+09 0.625675 -0.373344
1.44e+09 0.621509 -0.373756
1.45e+09 0.617541 -0.374997
1.46e+09 0.612984 -0.376737
1.47e+09 0.607427 -0.379274
1.48e+09 0.600679 -0.382554
1.49e+09 0.592731 -0.386059
1.5e+09 0.583394 -0.388965
1.51e+09 0.572942 -0.390972
1.52e+09 0.562448 -0.391765
1.53e+09 0.553434 -0.392504
1.54e+09 0.546683 -0.395011
1.55e+09 0.540992 -0.399694
1.56e+09 0.535144 -0.405825
1.57e+09 0.527814 -0.412284
1.58e+09 0.51883 -0.418468
1.59e+09 0.508524 -0.423923
1.6e+09 0.497142 -0.428874
1.61e+09 0.484413 -0.432927
1.62e+09 0.469669 -0.435642
1.63e+09 0.452967 -0.436022
1.64e+09 0.435351 -0.434214
1.65e+09 0.418799 -0.430654
1.66e+09 0.404278 -0.426759
1.67e+09 0.391808 -0.423116
1.68e+09 0.380003 -0.420471
1.69e+09 0.367305 -0.419389
1.7e+09 0.353547 -0.418992
1.71e+09 0.340006 -0.417797
1.72e+09 0.327079 -0.41546
1.73e+09 0.31412 -0.412173
1.74e+09 0.299656 -0.408183
1.75e+09 0.282547 -0.40345
1.76e+09 0.263263 -0.397249
1.77e+09 0.242768 -0.388716
1.78e+09 0.221814 -0.37744
1.79e+09 0.200824 -0.363062
1.8e+09 0.180315 -0.345572
1.81e+09 0.161325 -0.325236
1.82e+09 0.144696 -0.302852
1.83e+09 0.131038 -0.279358
1.84e+09 0.119981 -0.254838
1.85e+09 0.111094 -0.229042
1.86e+09 0.104312 -0.201911
1.87e+09 0.100214 -0.173976
1.88e+09 0.098364 -0.14608
1.89e+09 0.0986353 -0.11745
1.9e+09 0.101709 -0.0871459
1.91e+09 0.108758 -0.0551047
1.92e+09 0.120844 -0.0230709
1.93e+09 0.137563 0.00620981
1.94e+09 0.157494 0.0312817
1.95e+09 0.178556 0.0519958
1.96e+09 0.199501 0.0695252
1.97e+09 0.220199 0.0848321
1.98e+09 0.24096 0.0983345
1.99e+09 0.262508 0.110084
2e+09 0.285148 0.11973
2.01e+09 0.308688 0.12695
2.02e+09 0.332585 0.131499
2.03e+09 0.355682 0.133601
2.04e+09 0.377512 0.13374
2.05e+09 0.397797 0.132421
2.06e+09 0.416343 0.129746
2.07e+09 0.432713 0.12564
2.08e+09 0.446312 0.120912
2.09e+09 0.458359 0.116757
2.1e+09 0.46925 0.112504
2.11e+09 0.479869 0.107966
2.12e+09 0.489519 0.102921
2.13e+09 0.497507 0.0979813
2.14e+09 0.503961 0.0937576
2.15e+09 0.509172 0.0911732
2.16e+09 0.513595 0.0906402
2.17e+09 0.518732 0.0921472
2.18e+09 0.525522 0.0959859
2.19e+09 0.534525 0.101057
2.2e+09 0.545957 0.105793
2.21e+09 0.558797 0.10868
2.22e+09 0.572073 0.109116
2.23e+09 0.584896 0.107538
2.24e+09 0.597523 0.105079
2.25e+09 0.609933 0.10227
2.26e+09 0.62203 0.0988308
2.27e+09 0.633572 0.0947946
2.28e+09 0.64491 0.0904899
2.29e+09 0.656431 0.0863706
2.3e+09 0.668563 0.0823821
2.31e+09 0.680684 0.0783368
2.32e+09 0.692312 0.0737825
2.33e+09 0.702988 0.0684203
2.34e+09 0.713234 0.0625926
2.35e+09 0.723368 0.0564189
2.36e+09 0.733653 0.0496209
2.37e+09 0.743646 0.0424514
2.38e+09 0.753769 0.0342338
2.39e+09 0.764076 0.0249305
2.4e+09 0.774909 0.0144316
2.41e+09 0.784537 0.00299055
2.42e+09 0.79284 -0.00866071
2.43e+09 0.79962 -0.0202883
2.44e+09 0.804775 -0.0316877
2.45e+09 0.808763 -0.0421889
2.46e+09 0.81208 -0.051492
2.47e+09 0.81524 -0.0599934
2.48e+09 0.818493 -0.0681197
2.49e+09 0.821859 -0.0762287
2.5e+09 0.825603 -0.0843854
2.51e+09 0.829894 -0.0932983
2.52e+09 0.834631 -0.102157
2.53e+09 0.839785 -0.111551
2.54e+09 0.845162 -0.121067
2.55e+09 0.850727 -0.131368
2.56e+09 0.856224 -0.142161
2.57e+09 0.861023 -0.153309
2.58e+09 0.865217 -0.164403
2.59e+09 0.868155 -0.175103
2.6e+09 0.870321 -0.185615
2.61e+09 0.871879 -0.196133
2.62e+09 0.872868 -0.207626
2.63e+09 0.873021 -0.220129
2.64e+09 0.872842 -0.233415
2.65e+09 0.872114 -0.246801
2.66e+09 0.870945 -0.259587
2.67e+09 0.868937 -0.271701
2.68e+09 0.866311 -0.282767
2.69e+09 0.862906 -0.292506
2.7e+09 0.859586 -0.301863
2.71e+09 0.856514 -0.311248
2.72e+09 0.854398 -0.320439
2.73e+09 0.852519 -0.328944
2.74e+09 0.850175 -0.336588
2.75e+09 0.846537 -0.343946
2.76e+09 0.841094 -0.352603
2.77e+09 0.835587 -0.363105
2.78e+09 0.831265 -0.374346
2.79e+09 0.82856 -0.383949
2.8e+09 0.825216 -0.391481
2.81e+09 0.81991 -0.398123
2.82e+09 0.812999 -0.405997
2.83e+09 0.806419 -0.415431
2.84e+09 0.801866 -0.424695
2.85e+09 0.799173 -0.432144
2.86e+09 0.796103 -0.436921
2.87e+09 0.79103 -0.441072
2.88e+09 0.784207 -0.446932
2.89e+09 0.777944 -0.455711
2.9e+09 0.774129 -0.465306
2.91e+09 0.771897 -0.472758
2.92e+09 0.769002 -0.477454
2.93e+09 0.763302 -0.481589
2.94e+09 0.755892 -0.487812
2.95e+09 0.749559 -0.496092
2.96e+09 0.745976 -0.503423
2.97e+09 0.743723 -0.507124
2.98e+09 0.73872 -0.508033
2.99e+09 0.729989 -0.509596
3e+09 0.720155 -0.515447
3.01e+09 0.712995 -0.524602
3.02e+09 0.709354 -0.533454
3.03e+09 0.706965 -0.539615
3.04e+09 0.703144 -0.544334
3.05e+09 0.697159 -0.550192
3.06e+09 0.691661 -0.558425
3.07e+09 0.688753 -0.566836
3.08e+09 0.687633 -0.572286
3.09e+09 0.684644 -0.574273
3.1e+09 0.678256 -0.575687
3.11e+09 0.670358 -0.57941
3.12e+09 0.66349 -0.585886
3.13e+09 0.659155 -0.592469
3.14e+09 0.656033 -0.597354
3.15e+09 0.651551 -0.60111
3.16e+09 0.644743 -0.606215
3.17e+09 0.637175 -0.614636
3.18e+09 0.631388 -0.625373
3.19e+09 0.629498 -0.635624
3.2e+09 0.628896 -0.643255
3.21e+09 0.627198 -0.648096
3.22e+09 0.622949 -0.652608
3.23e+09 0.617263 -0.658649
3.24e+09 0.613551 -0.666298
3.25e+09 0.612402 -0.671835
3.26e+09 0.61094 -0.674437
3.27e+09 0.604947 -0.674319
3.28e+09 0.594061 -0.677104
3.29e+09 0.582371 -0.685708
3.3e+09 0.574253 -0.698217
3.31e+09 0.570588 -0.710386
3.32e+09 0.568749 -0.719234
3.33e+09 0.564313 -0.726249
3.34e+09 0.557146 -0.734201
3.35e+09 0.550543 -0.744695
3.36e+09 0.547556 -0.754286
3.37e+09 0.546519 -0.759238
3.38e+09 0.54457 -0.758738
3.39e+09 0.536097 -0.756779
3.4e+09 0.52331 -0.758731
3.41e+09 0.511068 -0.766587
3.42e+09 0.50339 -0.776929
3.43e+09 0.498375 -0.785513
3.44e+09 0.490993 -0.790867
3.45e+09 0.47968 -0.797102
3.46e+09 0.4672 -0.806822
3.47e+09 0.457245 -0.820608
3.48e+09 0.452476 -0.834222
3.49e+09 0.451275 -0.843073
3.5e+09 0.449836 -0.846272
3.51e+09 0.444297 -0.846128
3.52e+09 0.435811 -0.846927
3.53e+09 0.426657 -0.84986
3.54e+09 0.418442 -0.854071
3.55e+09 0.411493 -0.856998
3.56e+09 0.402743 -0.858481
3.57e+09 0.390936 -0.859436
3.58e+09 0.37702 -0.864009
3.59e+09 0.36416 -0.871783
3.6e+09 0.354983 -0.881021
3.61e+09 0.348805 -0.888543
3.62e+09 0.343111 -0.89296
3.63e+09 0.336114 -0.896001
3.64e+09 0.328331 -0.899507
3.65e+09 0.321788 -0.903741
3.66e+09 0.318066 -0.90627
3.67e+09 0.314798 -0.905142
3.68e+09 0.308406 -0.900924
3.69e+09 0.297806 -0.896874
3.7e+09 0.284542 -0.896647
3.71e+09 0.272117 -0.900266
3.72e+09 0.262824 -0.905042
3.73e+09 0.255185 -0.908594
3.74e+09 0.247411 -0.910233
3.75e+09 0.238411 -0.911483
3.76e+09 0.229639 -0.913882
3.77e+09 0.223468 -0.917155
3.78e+09 0.220699 -0.91888
3.79e+09 0.218474 -0.91686
3.8e+09 0.214805 -0.911924
3.81e+09 0.208201 -0.906487
3.82e+09 0.200358 -0.902095
3.83e+09 0.193037 -0.898835
3.84e+09 0.186393 -0.89647
3.85e+09 0.180778 -0.893106
3.86e+09 0.17343 -0.888999
3.87e+09 0.165573 -0.885973
3.88e+09 0.158375 -0.884696
3.89e+09 0.153763 -0.884259
3.9e+09 0.151519 -0.883424
3.91e+09 0.149907 -0.880078
3.92e+09 0.147629 -0.874665
3.93e+09 0.143996 -0.869294
3.94e+09 0.140653 -0.864355
3.95e+09 0.137773 -0.859284
3.96e+09 0.134094 -0.853215
3.97e+09 0.129707 -0.846593
3.98e+09 0.12407 -0.841116
3.99e+09 0.119039 -0.837375
4e+09 0.116049 -0.834338
4.01e+09 0.115118 -0.831442
4.02e+09 0.115152 -0.828275
4.03e+09 0.115704 -0.824247
4.04e+09 0.116435 -0.819406
4.05e+09 0.117467 -0.81401
4.06e+09 0.11867 -0.807779
4.07e+09 0.119911 -0.801159
4.08e+09 0.120819 -0.794004
4.09e+09 0.121215 -0.786251
4.1e+09 0.121087 -0.778267
4.11e+09 0.120236 -0.771686
4.12e+09 0.120195 -0.766849
4.13e+09 0.120904 -0.763955
4.14e+09 0.122241 -0.761294
4.15e+09 0.123395 -0.75803
4.16e+09 0.12396 -0.753977
4.17e+09 0.124303 -0.75062
4.18e+09 0.12611 -0.747668
4.19e+09 0.128515 -0.745202
4.2e+09 0.131253 -0.741868
4.21e+09 0.133703 -0.736992
4.22e+09 0.134873 -0.732007
4.23e+09 0.135146 -0.72816
4.24e+09 0.135555 -0.726098
4.25e+09 0.136511 -0.72512
4.26e+09 0.137842 -0.723387
4.27e+09 0.139185 -0.720862
4.28e+09 0.14037 -0.718312
4.29e+09 0.142115 -0.716684
4.3e+09 0.144456 -0.716116
4.31e+09 0.147332 -0.716057
4.32e+09 0.150083 -0.716133
4.33e+09 0.151487 -0.714792
4.34e+09 0.151463 -0.714059
4.35e+09 0.149972 -0.714344
4.36e+09 0.147611 -0.715357
4.37e+09 0.144623 -0.716985
4.38e+09 0.142154 -0.718604
4.39e+09 0.140209 -0.720505
4.4e+09 0.138854 -0.722086
4.41e+09 0.137923 -0.723939
4.42e+09 0.137233 -0.725791
4.43e+09 0.136659 -0.728215
4.44e+09 0.136158 -0.730513
4.45e+09 0.1364 -0.732272
4.46e+09 0.13515 -0.733663
4.47e+09 0.132562 -0.734972
4.48e+09 0.128066 -0.736387
4.49e+09 0.12223 -0.738516
4.5e+09 0.115761 -0.74197
4.51e+09 0.109393 -0.746316
4.52e+09 0.103164 -0.750727
4.53e+09 0.0972912 -0.754835
4.54e+09 0.0915591 -0.758981
4.55e+09 0.0863152 -0.763573
4.56e+09 0.0817564 -0.768249
4.57e+09 0.0777452 -0.772778
4.58e+09 0.0738853 -0.776719
4.59e+09 0.0692173 -0.779884
4.6e+09 0.0634137 -0.782283
4.61e+09 0.0555938 -0.784793
4.62e+09 0.0464999 -0.787347
4.63e+09 0.0370054 -0.790149
4.64e+09 0.0272794 -0.792803
4.65e+09 0.0170926 -0.795307
4.66e+09 0.00720479 -0.797976
4.67e+09 -0.00217396 -0.800504
4.68e+09 -0.0107923 -0.803217
4.69e+09 -0.0186613 -0.805839
4.7e+09 -0.0258243 -0.808086
4.71e+09 -0.0327437 -0.810626
4.72e+09 -0.0395631 -0.812677
4.73e+09 -0.0467762 -0.814586
4.74e+09 -0.0550964 -0.815862
4.75e+09 -0.0645327 -0.816976
4.76e+09 -0.0748532 -0.818289
4.77e+09 -0.08519 -0.81986
4.78e+09 -0.0955713 -0.821728
4.79e+09 -0.105705 -0.823591
4.8e+09 -0.115355 -0.825553
4.81e+09 -0.124288 -0.827334
4.82e+09 -0.132583 -0.828929
4.83e+09 -0.140505 -0.831122
4.84e+09 -0.147848 -0.83296
4.85e+09 -0.155458 -0.834385
4.86e+09 -0.163722 -0.834959
4.87e+09 -0.173099 -0.834837
4.88e+09 -0.183217 -0.833598
4.89e+09 -0.194225 -0.831934
4.9e+09 -0.205337 -0.830289
4.91e+09 -0.216223 -0.82879
4.92e+09 -0.227228 -0.827597
4.93e+09 -0.237515 -0.826301
4.94e+09 -0.246853 -0.825052
4.95e+09 -0.255511 -0.823998
4.96e+09 -0.26359 -0.823554
4.97e+09 -0.270581 -0.822107
4.98e+09 -0.27753 -0.820636
4.99e+09 -0.284264 -0.818501
5e+09 -0.29091 -0.815618
5.01e+09 -0.297888 -0.811865
5.02e+09 -0.305246 -0.808109
5.03e+09 -0.313152 -0.804273
5.04e+09 -0.320754 -0.800524
5.05e+09 -0.327272 -0.797377
5.06e+09 -0.333409 -0.79443
5.07e+09 -0.339274 -0.792159
5.08e+09 -0.345278 -0.790085
5.09e+09 -0.350607 -0.788809
5.1e+09 -0.355626 -0.787697
5.11e+09 -0.360172 -0.786067
5.12e+09 -0.36479 -0.783687
5.13e+09 -0.36944 -0.780675
5.14e+09 -0.374357 -0.777266
5.15e+09 -0.379745 -0.773651
5.16e+09 -0.384983 -0.769564
5.17e+09 -0.389289 -0.766204
5.18e+09 -0.393818 -0.7634
5.19e+09 -0.398336 -0.761234
5.2e+09 -0.402075 -0.759451
5.21e+09 -0.405492 -0.757921
5.22e+09 -0.407915 -0.756695
5.23e+09 -0.410297 -0.755358
5.24e+09 -0.412319 -0.754241
5.25e+09 -0.413966 -0.752472
5.26e+09 -0.416631 -0.750695
5.27e+09 -0.419822 -0.748666
5.28e+09 -0.423572 -0.746198
5.29e+09 -0.42798 -0.743318
5.3e+09 -0.432069 -0.740465
5.31e+09 -0.436039 -0.737537
5.32e+09 -0.439521 -0.734822
5.33e+09 -0.442809 -0.731885
5.34e+09 -0.445651 -0.728177
5.35e+09 -0.447566 -0.72261
5.36e+09 -0.448051 -0.713701
5.37e+09 -0.44894 -0.70334
5.38e+09 -0.448703 -0.695398
5.39e+09 -0.448427 -0.689489
5.4e+09 -0.449188 -0.684761
