! Touchstone file generated by Optenni Lab on 2026-07-15T02:39:49
# Hz S RI R 50
! freq S11(real imag) S21(real imag) S12(real imag) S22(real imag)
1e+08 0.0129652 0.0288278 0.986367 -0.0438256 0.986367 -0.0438256 0.0140635 0.0284065
1.1e+08 0.0131181 0.0317068 0.986074 -0.0481995 0.986074 -0.0481995 0.0144466 0.0312321
1.2e+08 0.0132855 0.0345848 0.985753 -0.0525709 0.985753 -0.0525709 0.014866 0.0340534
1.3e+08 0.0134674 0.0374616 0.985404 -0.0569396 0.985404 -0.0569396 0.0153216 0.0368699
1.4e+08 0.0136638 0.0403371 0.985028 -0.0613054 0.985028 -0.0613054 0.0158134 0.0396814
1.5e+08 0.0138747 0.0432113 0.984623 -0.0656681 0.984623 -0.0656681 0.0163414 0.0424874
1.6e+08 0.0141001 0.046084 0.984192 -0.0700274 0.984192 -0.0700274 0.0169054 0.0452876
1.7e+08 0.01434 0.0489552 0.983732 -0.0743831 0.983732 -0.0743831 0.0175054 0.0480816
1.8e+08 0.0145943 0.0518247 0.983245 -0.0787349 0.983245 -0.0787349 0.0181413 0.0508689
1.9e+08 0.0148631 0.0546925 0.98273 -0.0830828 0.98273 -0.0830828 0.018813 0.0536492
2e+08 0.0151463 0.0575584 0.982188 -0.0874264 0.982188 -0.0874264 0.0195205 0.0564221
2.1e+08 0.015444 0.0604224 0.981618 -0.0917655 0.981618 -0.0917655 0.0202637 0.0591872
2.2e+08 0.015756 0.0632844 0.98102 -0.0961 0.98102 -0.0961 0.0210425 0.0619442
2.3e+08 0.0160825 0.0661442 0.980396 -0.100429 0.980396 -0.100429 0.0218567 0.0646926
2.4e+08 0.0164233 0.0690018 0.979744 -0.104754 0.979744 -0.104754 0.0227063 0.0674322
2.5e+08 0.0167785 0.0718571 0.979064 -0.109073 0.979064 -0.109073 0.0235912 0.0701624
2.6e+08 0.017148 0.07471 0.978357 -0.113386 0.978357 -0.113386 0.0245113 0.072883
2.7e+08 0.0175318 0.0775603 0.977623 -0.117694 0.977623 -0.117694 0.0254664 0.0755936
2.8e+08 0.01793 0.0804081 0.976862 -0.121996 0.976862 -0.121996 0.0264565 0.0782937
2.9e+08 0.0183424 0.0832531 0.976074 -0.126291 0.976074 -0.126291 0.0274813 0.0809831
3e+08 0.0187691 0.0860954 0.975258 -0.13058 0.975258 -0.13058 0.0285409 0.0836613
3.1e+08 0.01921 0.0889347 0.974416 -0.134862 0.974416 -0.134862 0.029635 0.086328
3.2e+08 0.0196651 0.0917711 0.973547 -0.139138 0.973547 -0.139138 0.0307635 0.0889828
3.3e+08 0.0201344 0.0946044 0.97265 -0.143406 0.97265 -0.143406 0.0319264 0.0916254
3.4e+08 0.0206179 0.0974345 0.971727 -0.147667 0.971727 -0.147667 0.0331234 0.0942553
3.5e+08 0.0211155 0.100261 0.970778 -0.151921 0.970778 -0.151921 0.0343543 0.0968723
3.6e+08 0.0216272 0.103085 0.969801 -0.156167 0.969801 -0.156167 0.0356191 0.0994759
3.7e+08 0.022153 0.105905 0.968798 -0.160404 0.968798 -0.160404 0.0369176 0.102066
3.8e+08 0.0226929 0.108721 0.967769 -0.164634 0.967769 -0.164634 0.0382497 0.104642
3.9e+08 0.0232468 0.111534 0.966713 -0.168856 0.966713 -0.168856 0.0396151 0.107203
4e+08 0.0238147 0.114343 0.965631 -0.173068 0.965631 -0.173068 0.0410137 0.10975
4.1e+08 0.0243966 0.117148 0.964522 -0.177272 0.964522 -0.177272 0.0424453 0.112282
4.2e+08 0.0249925 0.11995 0.963387 -0.181467 0.963387 -0.181467 0.0439098 0.114798
4.3e+08 0.0256022 0.122747 0.962226 -0.185653 0.962226 -0.185653 0.045407 0.117298
4.4e+08 0.0262259 0.12554 0.96104 -0.18983 0.96104 -0.18983 0.0469367 0.119783
4.5e+08 0.0268634 0.128329 0.959827 -0.193996 0.959827 -0.193996 0.0484987 0.12225
4.6e+08 0.0275147 0.131114 0.958588 -0.198154 0.958588 -0.198154 0.0500927 0.124701
4.7e+08 0.0281798 0.133894 0.957324 -0.202301 0.957324 -0.202301 0.0517188 0.127135
4.8e+08 0.0288586 0.13667 0.956034 -0.206437 0.956034 -0.206437 0.0533765 0.129551
4.9e+08 0.0295512 0.139442 0.954718 -0.210564 0.954718 -0.210564 0.0550658 0.13195
5e+08 0.0302574 0.142208 0.953377 -0.21468 0.953377 -0.21468 0.0567864 0.13433
5.1e+08 0.0309773 0.14497 0.952011 -0.218785 0.952011 -0.218785 0.0585381 0.136692
5.2e+08 0.0317108 0.147727 0.950619 -0.222879 0.950619 -0.222879 0.0603207 0.139035
5.3e+08 0.0324578 0.150479 0.949203 -0.226961 0.949203 -0.226961 0.0621339 0.141359
5.4e+08 0.0332184 0.153227 0.947761 -0.231033 0.947761 -0.231033 0.0639777 0.143664
5.5e+08 0.0339925 0.155969 0.946294 -0.235092 0.946294 -0.235092 0.0658516 0.145949
5.6e+08 0.03478 0.158705 0.944803 -0.23914 0.944803 -0.23914 0.0677556 0.148214
5.7e+08 0.035581 0.161437 0.943286 -0.243176 0.943286 -0.243176 0.0696894 0.150458
5.8e+08 0.0363953 0.164163 0.941746 -0.2472 0.941746 -0.2472 0.0716527 0.152682
5.9e+08 0.0372229 0.166884 0.94018 -0.251212 0.94018 -0.251212 0.0736454 0.154885
6e+08 0.0380638 0.169599 0.938591 -0.255211 0.938591 -0.255211 0.0756671 0.157066
6.1e+08 0.038918 0.172309 0.936977 -0.259197 0.936977 -0.259197 0.0777176 0.159226
6.2e+08 0.0397853 0.175013 0.935339 -0.26317 0.935339 -0.26317 0.0797967 0.161364
6.3e+08 0.0406658 0.177711 0.933677 -0.26713 0.933677 -0.26713 0.0819041 0.16348
6.4e+08 0.0415594 0.180403 0.931991 -0.271077 0.931991 -0.271077 0.0840397 0.165574
6.5e+08 0.0424661 0.183089 0.930281 -0.27501 0.930281 -0.27501 0.086203 0.167644
6.6e+08 0.0433858 0.185769 0.928548 -0.27893 0.928548 -0.27893 0.0883939 0.169692
6.7e+08 0.0443184 0.188443 0.926791 -0.282836 0.926791 -0.282836 0.0906121 0.171716
6.8e+08 0.045264 0.191111 0.925011 -0.286728 0.925011 -0.286728 0.0928573 0.173717
6.9e+08 0.0462224 0.193773 0.923207 -0.290606 0.923207 -0.290606 0.0951293 0.175694
7e+08 0.0471937 0.196428 0.921381 -0.294469 0.921381 -0.294469 0.0974278 0.177647
7.1e+08 0.0481777 0.199076 0.919531 -0.298318 0.919531 -0.298318 0.0997526 0.179576
7.2e+08 0.0491744 0.201718 0.917659 -0.302152 0.917659 -0.302152 0.102103 0.18148
7.3e+08 0.0501838 0.204354 0.915764 -0.305971 0.915764 -0.305971 0.10448 0.183359
7.4e+08 0.0512058 0.206982 0.913846 -0.309775 0.913846 -0.309775 0.106881 0.185212
7.5e+08 0.0522404 0.209604 0.911906 -0.313564 0.911906 -0.313564 0.109308 0.187041
7.6e+08 0.0532874 0.212219 0.909944 -0.317338 0.909944 -0.317338 0.11176 0.188844
7.7e+08 0.054347 0.214827 0.90796 -0.321096 0.90796 -0.321096 0.114236 0.19062
7.8e+08 0.0554189 0.217428 0.905953 -0.324838 0.905953 -0.324838 0.116736 0.192371
7.9e+08 0.0565032 0.220022 0.903925 -0.328564 0.903925 -0.328564 0.119261 0.194096
8e+08 0.0575997 0.222609 0.901875 -0.332275 0.901875 -0.332275 0.121808 0.195793
8.1e+08 0.0587085 0.225188 0.899804 -0.335969 0.899804 -0.335969 0.12438 0.197464
8.2e+08 0.0598295 0.22776 0.897711 -0.339646 0.897711 -0.339646 0.126974 0.199108
8.3e+08 0.0609625 0.230325 0.895597 -0.343308 0.895597 -0.343308 0.129591 0.200725
8.4e+08 0.0621077 0.232882 0.893462 -0.346952 0.893462 -0.346952 0.132231 0.202314
8.5e+08 0.0632648 0.235431 0.891306 -0.35058 0.891306 -0.35058 0.134892 0.203875
8.6e+08 0.0644339 0.237973 0.889129 -0.354191 0.889129 -0.354191 0.137575 0.205409
8.7e+08 0.0656148 0.240507 0.886932 -0.357784 0.886932 -0.357784 0.14028 0.206914
8.8e+08 0.0668075 0.243033 0.884714 -0.361361 0.884714 -0.361361 0.143006 0.208391
8.9e+08 0.0680121 0.245552 0.882476 -0.36492 0.882476 -0.36492 0.145753 0.209839
9e+08 0.0692283 0.248062 0.880217 -0.368461 0.880217 -0.368461 0.148521 0.211259
9.1e+08 0.0704561 0.250564 0.877939 -0.371985 0.877939 -0.371985 0.151308 0.21265
9.2e+08 0.0716955 0.253059 0.875641 -0.375491 0.875641 -0.375491 0.154116 0.214011
9.3e+08 0.0729464 0.255545 0.873323 -0.378979 0.873323 -0.378979 0.156943 0.215344
9.4e+08 0.0742087 0.258022 0.870986 -0.382448 0.870986 -0.382448 0.159789 0.216646
9.5e+08 0.0754824 0.260492 0.86863 -0.3859 0.86863 -0.3859 0.162654 0.21792
9.6e+08 0.0767674 0.262953 0.866254 -0.389333 0.866254 -0.389333 0.165538 0.219163
9.7e+08 0.0780637 0.265405 0.86386 -0.392748 0.86386 -0.392748 0.16844 0.220376
9.8e+08 0.0793711 0.267849 0.861446 -0.396143 0.861446 -0.396143 0.17136 0.221559
9.9e+08 0.0806896 0.270285 0.859014 -0.399521 0.859014 -0.399521 0.174298 0.222712
1e+09 0.0820192 0.272712 0.856564 -0.402879 0.856564 -0.402879 0.177252 0.223835
1.01e+09 0.0833598 0.27513 0.854095 -0.406218 0.854095 -0.406218 0.180224 0.224926
1.02e+09 0.0847112 0.277539 0.851609 -0.409538 0.851609 -0.409538 0.183212 0.225987
1.03e+09 0.0860735 0.279939 0.849104 -0.412839 0.849104 -0.412839 0.186217 0.227017
1.04e+09 0.0874465 0.28233 0.846582 -0.41612 0.846582 -0.41612 0.189237 0.228016
1.05e+09 0.0888303 0.284713 0.844042 -0.419382 0.844042 -0.419382 0.192273 0.228984
1.06e+09 0.0902246 0.287086 0.841484 -0.422624 0.841484 -0.422624 0.195324 0.229921
1.07e+09 0.0916295 0.28945 0.83891 -0.425846 0.83891 -0.425846 0.19839 0.230825
1.08e+09 0.0930449 0.291805 0.836318 -0.429049 0.836318 -0.429049 0.201471 0.231699
1.09e+09 0.0944707 0.294151 0.83371 -0.432231 0.83371 -0.432231 0.204566 0.232541
1.1e+09 0.0959068 0.296487 0.831085 -0.435394 0.831085 -0.435394 0.207674 0.23335
1.11e+09 0.0973531 0.298814 0.828443 -0.438536 0.828443 -0.438536 0.210796 0.234128
1.12e+09 0.0988097 0.301132 0.825785 -0.441658 0.825785 -0.441658 0.213931 0.234874
1.13e+09 0.100276 0.303439 0.823112 -0.44476 0.823112 -0.44476 0.217079 0.235588
1.14e+09 0.101753 0.305738 0.820422 -0.447841 0.820422 -0.447841 0.22024 0.23627
1.15e+09 0.10324 0.308027 0.817716 -0.450901 0.817716 -0.450901 0.223412 0.236919
1.16e+09 0.104736 0.310306 0.814995 -0.453941 0.814995 -0.453941 0.226596 0.237536
1.17e+09 0.106243 0.312575 0.812259 -0.45696 0.812259 -0.45696 0.229792 0.23812
1.18e+09 0.107759 0.314835 0.809507 -0.459958 0.809507 -0.459958 0.232998 0.238672
1.19e+09 0.109284 0.317084 0.80674 -0.462935 0.80674 -0.462935 0.236215 0.239191
1.2e+09 0.11082 0.319324 0.803959 -0.465892 0.803959 -0.465892 0.239443 0.239677
1.21e+09 0.112365 0.321554 0.801163 -0.468826 0.801163 -0.468826 0.24268 0.240131
1.22e+09 0.113919 0.323774 0.798353 -0.47174 0.798353 -0.47174 0.245927 0.240551
1.23e+09 0.115482 0.325983 0.795528 -0.474633 0.795528 -0.474633 0.249184 0.240939
1.24e+09 0.117055 0.328183 0.792689 -0.477504 0.792689 -0.477504 0.252449 0.241294
1.25e+09 0.118637 0.330372 0.789837 -0.480353 0.789837 -0.480353 0.255723 0.241616
1.26e+09 0.120228 0.332551 0.786971 -0.483181 0.786971 -0.483181 0.259005 0.241904
1.27e+09 0.121828 0.33472 0.784091 -0.485987 0.784091 -0.485987 0.262295 0.24216
1.28e+09 0.123437 0.336879 0.781198 -0.488772 0.781198 -0.488772 0.265592 0.242382
1.29e+09 0.125055 0.339027 0.778292 -0.491535 0.778292 -0.491535 0.268896 0.242571
1.3e+09 0.126682 0.341165 0.775374 -0.494276 0.775374 -0.494276 0.272208 0.242727
1.31e+09 0.128318 0.343292 0.772442 -0.496995 0.772442 -0.496995 0.275525 0.24285
1.32e+09 0.129962 0.345409 0.769499 -0.499692 0.769499 -0.499692 0.278849 0.242939
1.33e+09 0.131614 0.347515 0.766542 -0.502367 0.766542 -0.502367 0.282178 0.242995
1.34e+09 0.133275 0.34961 0.763574 -0.50502 0.763574 -0.50502 0.285513 0.243018
1.35e+09 0.134945 0.351695 0.760594 -0.507651 0.760594 -0.507651 0.288853 0.243007
1.36e+09 0.136622 0.353769 0.757602 -0.510259 0.757602 -0.510259 0.292198 0.242963
1.37e+09 0.138308 0.355833 0.754599 -0.512845 0.754599 -0.512845 0.295547 0.242886
1.38e+09 0.140002 0.357886 0.751585 -0.515409 0.751585 -0.515409 0.298899 0.242775
1.39e+09 0.141704 0.359927 0.748559 -0.517951 0.748559 -0.517951 0.302256 0.242631
1.4e+09 0.143414 0.361958 0.745522 -0.52047 0.745522 -0.52047 0.305616 0.242454
1.41e+09 0.145132 0.363978 0.742475 -0.522967 0.742475 -0.522967 0.308978 0.242243
1.42e+09 0.146857 0.365987 0.739418 -0.525441 0.739418 -0.525441 0.312344 0.241999
1.43e+09 0.148591 0.367985 0.73635 -0.527892 0.73635 -0.527892 0.315711 0.241722
1.44e+09 0.150332 0.369972 0.733271 -0.530321 0.733271 -0.530321 0.319081 0.241411
1.45e+09 0.15208 0.371948 0.730183 -0.532728 0.730183 -0.532728 0.322452 0.241068
1.46e+09 0.153836 0.373913 0.727086 -0.535111 0.727086 -0.535111 0.325824 0.240691
1.47e+09 0.155599 0.375867 0.723978 -0.537472 0.723978 -0.537472 0.329197 0.240281
1.48e+09 0.15737 0.37781 0.720862 -0.53981 0.720862 -0.53981 0.33257 0.239838
1.49e+09 0.159147 0.379741 0.717736 -0.542126 0.717736 -0.542126 0.335944 0.239361
1.5e+09 0.160932 0.381661 0.714602 -0.544418 0.714602 -0.544418 0.339318 0.238852
1.51e+09 0.162724 0.38357 0.711458 -0.546688 0.711458 -0.546688 0.342691 0.23831
1.52e+09 0.164522 0.385467 0.708307 -0.548935 0.708307 -0.548935 0.346063 0.237735
1.53e+09 0.166328 0.387354 0.705146 -0.551159 0.705146 -0.551159 0.349434 0.237127
1.54e+09 0.16814 0.389228 0.701978 -0.55336 0.701978 -0.55336 0.352804 0.236486
1.55e+09 0.169959 0.391092 0.698802 -0.555538 0.698802 -0.555538 0.356171 0.235812
1.56e+09 0.171784 0.392944 0.695618 -0.557693 0.695618 -0.557693 0.359537 0.235106
1.57e+09 0.173616 0.394785 0.692427 -0.559825 0.692427 -0.559825 0.3629 0.234367
1.58e+09 0.175455 0.396614 0.689228 -0.561935 0.689228 -0.561935 0.366261 0.233596
1.59e+09 0.177299 0.398431 0.686022 -0.564021 0.686022 -0.564021 0.369618 0.232792
1.6e+09 0.17915 0.400237 0.682809 -0.566084 0.682809 -0.566084 0.372972 0.231956
1.61e+09 0.181007 0.402032 0.679589 -0.568124 0.679589 -0.568124 0.376321 0.231087
1.62e+09 0.18287 0.403815 0.676363 -0.570141 0.676363 -0.570141 0.379667 0.230187
1.63e+09 0.184739 0.405586 0.673131 -0.572136 0.673131 -0.572136 0.383009 0.229254
1.64e+09 0.186614 0.407346 0.669892 -0.574107 0.669892 -0.574107 0.386346 0.228289
1.65e+09 0.188494 0.409094 0.666647 -0.576055 0.666647 -0.576055 0.389677 0.227293
1.66e+09 0.19038 0.41083 0.663397 -0.57798 0.663397 -0.57798 0.393004 0.226264
1.67e+09 0.192272 0.412555 0.660141 -0.579882 0.660141 -0.579882 0.396324 0.225204
1.68e+09 0.19417 0.414268 0.656879 -0.581761 0.656879 -0.581761 0.399639 0.224113
1.69e+09 0.196072 0.41597 0.653613 -0.583617 0.653613 -0.583617 0.402947 0.22299
1.7e+09 0.19798 0.417659 0.650341 -0.585451 0.650341 -0.585451 0.406249 0.221836
1.71e+09 0.199894 0.419337 0.647064 -0.587261 0.647064 -0.587261 0.409544 0.22065
1.72e+09 0.201812 0.421003 0.643783 -0.589048 0.643783 -0.589048 0.412832 0.219434
1.73e+09 0.203736 0.422657 0.640498 -0.590812 0.640498 -0.590812 0.416112 0.218186
1.74e+09 0.205664 0.4243 0.637208 -0.592553 0.637208 -0.592553 0.419384 0.216908
1.75e+09 0.207598 0.425931 0.633914 -0.594272 0.633914 -0.594272 0.422648 0.215599
1.76e+09 0.209536 0.42755 0.630616 -0.595967 0.630616 -0.595967 0.425904 0.214259
1.77e+09 0.211479 0.429157 0.627315 -0.59764 0.627315 -0.59764 0.429152 0.212889
1.78e+09 0.213426 0.430752 0.62401 -0.599289 0.62401 -0.599289 0.43239 0.211489
1.79e+09 0.215378 0.432335 0.620702 -0.600916 0.620702 -0.600916 0.435619 0.210058
1.8e+09 0.217335 0.433907 0.617391 -0.60252 0.617391 -0.60252 0.438838 0.208598
1.81e+09 0.219295 0.435466 0.614076 -0.604102 0.614076 -0.604102 0.442048 0.207107
1.82e+09 0.221261 0.437014 0.610759 -0.60566 0.610759 -0.60566 0.445248 0.205587
1.83e+09 0.22323 0.43855 0.60744 -0.607196 0.60744 -0.607196 0.448437 0.204038
1.84e+09 0.225203 0.440074 0.604118 -0.608709 0.604118 -0.608709 0.451616 0.202459
1.85e+09 0.22718 0.441586 0.600794 -0.6102 0.600794 -0.6102 0.454783 0.200851
1.86e+09 0.229162 0.443086 0.597468 -0.611668 0.597468 -0.611668 0.45794 0.199214
1.87e+09 0.231147 0.444575 0.59414 -0.613113 0.59414 -0.613113 0.461085 0.197548
1.88e+09 0.233136 0.446051 0.59081 -0.614536 0.59081 -0.614536 0.464219 0.195853
1.89e+09 0.235128 0.447516 0.587479 -0.615936 0.587479 -0.615936 0.46734 0.19413
1.9e+09 0.237124 0.448968 0.584146 -0.617314 0.584146 -0.617314 0.470449 0.192378
1.91e+09 0.239123 0.450409 0.580813 -0.618669 0.580813 -0.618669 0.473546 0.190598
1.92e+09 0.241126 0.451838 0.577478 -0.620002 0.577478 -0.620002 0.47663 0.18879
1.93e+09 0.243132 0.453255 0.574143 -0.621313 0.574143 -0.621313 0.479701 0.186955
1.94e+09 0.245142 0.45466 0.570807 -0.622602 0.570807 -0.622602 0.482759 0.185091
1.95e+09 0.247154 0.456053 0.56747 -0.623868 0.56747 -0.623868 0.485803 0.1832
1.96e+09 0.24917 0.457434 0.564134 -0.625112 0.564134 -0.625112 0.488834 0.181282
1.97e+09 0.251188 0.458803 0.560797 -0.626335 0.560797 -0.626335 0.491851 0.179337
1.98e+09 0.25321 0.46016 0.55746 -0.627535 0.55746 -0.627535 0.494853 0.177365
1.99e+09 0.255234 0.461506 0.554124 -0.628713 0.554124 -0.628713 0.497841 0.175366
2e+09 0.257261 0.46284 0.550788 -0.629869 0.550788 -0.629869 0.500815 0.173341
2.01e+09 0.25929 0.464161 0.547453 -0.631003 0.547453 -0.631003 0.503773 0.171289
2.02e+09 0.261322 0.465471 0.544118 -0.632116 0.544118 -0.632116 0.506717 0.169212
2.03e+09 0.263356 0.466769 0.540784 -0.633206 0.540784 -0.633206 0.509645 0.167108
2.04e+09 0.265393 0.468055 0.537452 -0.634276 0.537452 -0.634276 0.512558 0.164979
2.05e+09 0.267432 0.46933 0.53412 -0.635323 0.53412 -0.635323 0.515455 0.162824
2.06e+09 0.269473 0.470592 0.53079 -0.636349 0.53079 -0.636349 0.518336 0.160644
2.07e+09 0.271517 0.471843 0.527462 -0.637354 0.527462 -0.637354 0.5212 0.158438
2.08e+09 0.273562 0.473082 0.524135 -0.638337 0.524135 -0.638337 0.524049 0.156208
2.09e+09 0.275609 0.474309 0.52081 -0.639298 0.52081 -0.639298 0.52688 0.153953
2.1e+09 0.277658 0.475524 0.517487 -0.640239 0.517487 -0.640239 0.529695 0.151674
2.11e+09 0.279709 0.476728 0.514167 -0.641158 0.514167 -0.641158 0.532493 0.149371
2.12e+09 0.281762 0.47792 0.510849 -0.642056 0.510849 -0.642056 0.535274 0.147043
2.13e+09 0.283816 0.4791 0.507533 -0.642934 0.507533 -0.642934 0.538037 0.144692
2.14e+09 0.285872 0.480268 0.50422 -0.64379 0.50422 -0.64379 0.540783 0.142317
2.15e+09 0.287929 0.481425 0.50091 -0.644625 0.50091 -0.644625 0.543511 0.139918
2.16e+09 0.289987 0.48257 0.497602 -0.64544 0.497602 -0.64544 0.546221 0.137497
2.17e+09 0.292047 0.483703 0.494298 -0.646233 0.494298 -0.646233 0.548913 0.135053
2.18e+09 0.294108 0.484825 0.490997 -0.647007 0.490997 -0.647007 0.551587 0.132586
2.19e+09 0.29617 0.485935 0.4877 -0.647759 0.4877 -0.647759 0.554242 0.130096
2.2e+09 0.298233 0.487033 0.484406 -0.648491 0.484406 -0.648491 0.556879 0.127584
2.21e+09 0.300297 0.48812 0.481115 -0.649203 0.481115 -0.649203 0.559497 0.12505
2.22e+09 0.302362 0.489195 0.477829 -0.649895 0.477829 -0.649895 0.562096 0.122495
2.23e+09 0.304428 0.490259 0.474546 -0.650566 0.474546 -0.650566 0.564675 0.119918
2.24e+09 0.306495 0.491311 0.471268 -0.651217 0.471268 -0.651217 0.567236 0.117319
2.25e+09 0.308562 0.492352 0.467994 -0.651848 0.467994 -0.651848 0.569777 0.114699
2.26e+09 0.31063 0.493381 0.464724 -0.65246 0.464724 -0.65246 0.572298 0.112059
2.27e+09 0.312698 0.494399 0.461459 -0.653051 0.461459 -0.653051 0.574799 0.109398
2.28e+09 0.314767 0.495405 0.458198 -0.653623 0.458198 -0.653623 0.577281 0.106716
2.29e+09 0.316836 0.4964 0.454943 -0.654174 0.454943 -0.654174 0.579743 0.104015
2.3e+09 0.318905 0.497384 0.451692 -0.654707 0.451692 -0.654707 0.582184 0.101293
2.31e+09 0.320974 0.498356 0.448446 -0.65522 0.448446 -0.65522 0.584605 0.0985519
2.32e+09 0.323044 0.499317 0.445206 -0.655713 0.445206 -0.655713 0.587006 0.0957911
2.33e+09 0.325114 0.500267 0.44197 -0.656188 0.44197 -0.656188 0.589386 0.0930112
2.34e+09 0.327183 0.501205 0.43874 -0.656643 0.43874 -0.656643 0.591745 0.0902123
2.35e+09 0.329253 0.502132 0.435516 -0.657079 0.435516 -0.657079 0.594083 0.0873946
2.36e+09 0.331322 0.503048 0.432298 -0.657496 0.432298 -0.657496 0.596401 0.0845584
2.37e+09 0.333391 0.503953 0.429085 -0.657894 0.429085 -0.657894 0.598697 0.081704
2.38e+09 0.33546 0.504846 0.425878 -0.658273 0.425878 -0.658273 0.600972 0.0788316
2.39e+09 0.337528 0.505729 0.422677 -0.658634 0.422677 -0.658634 0.603226 0.0759414
2.4e+09 0.339596 0.5066 0.419483 -0.658976 0.419483 -0.658976 0.605458 0.0730336
2.41e+09 0.341664 0.507461 0.416295 -0.6593 0.416295 -0.6593 0.607669 0.0701086
2.42e+09 0.343731 0.50831 0.413113 -0.659605 0.413113 -0.659605 0.609858 0.0671665
2.43e+09 0.345797 0.509148 0.409937 -0.659892 0.409937 -0.659892 0.612026 0.0642076
2.44e+09 0.347862 0.509976 0.406769 -0.660161 0.406769 -0.660161 0.614171 0.0612322
2.45e+09 0.349927 0.510792 0.403607 -0.660412 0.403607 -0.660412 0.616295 0.0582404
2.46e+09 0.35199 0.511598 0.400452 -0.660645 0.400452 -0.660645 0.618396 0.0552325
2.47e+09 0.354053 0.512393 0.397304 -0.66086 0.397304 -0.66086 0.620476 0.0522089
2.48e+09 0.356115 0.513177 0.394162 -0.661057 0.394162 -0.661057 0.622533 0.0491696
2.49e+09 0.358176 0.51395 0.391029 -0.661237 0.391029 -0.661237 0.624568 0.0461149
