! Touchstone file generated by Optenni Lab on 2026-07-15T02:27:50
# Hz S DB R 50
! freq S11(magDB angle)
1e+08 -0.0894505 133.417
1.1e+08 -0.0973764 131.51
1.2e+08 -0.107531 128.997
1.3e+08 -0.111354 125.776
1.4e+08 -0.110643 122.18
1.5e+08 -0.107835 118.647
1.6e+08 -0.107932 115.206
1.7e+08 -0.10929 111.879
1.8e+08 -0.111413 108.632
1.9e+08 -0.114311 105.511
2e+08 -0.11721 102.496
2.1e+08 -0.119687 99.5863
2.2e+08 -0.123307 96.7659
2.3e+08 -0.130119 94.0426
2.4e+08 -0.131001 91.3786
2.5e+08 -0.130462 88.805
2.6e+08 -0.126966 86.3138
2.7e+08 -0.119172 83.8838
2.8e+08 -0.12096 81.5184
2.9e+08 -0.120166 79.2372
3e+08 -0.127077 77.004
3.1e+08 -0.130892 74.866
3.2e+08 -0.138891 72.7928
3.3e+08 -0.139489 70.7757
3.4e+08 -0.14349 68.8265
3.5e+08 -0.144957 66.9095
3.6e+08 -0.148833 65.0502
3.7e+08 -0.15062 63.2446
3.8e+08 -0.15166 61.4656
3.9e+08 -0.149228 59.7145
4e+08 -0.149435 58.0044
4.1e+08 -0.14937 56.3558
4.2e+08 -0.152499 54.7856
4.3e+08 -0.15523 53.3013
4.4e+08 -0.155233 51.8798
4.5e+08 -0.158671 50.518
4.6e+08 -0.159686 49.1716
4.7e+08 -0.158188 47.8461
4.8e+08 -0.158983 46.5109
4.9e+08 -0.159314 45.1942
5e+08 -0.160932 43.8862
5.1e+08 -0.15534 42.5534
5.2e+08 -0.150948 41.2606
5.3e+08 -0.144389 39.9802
5.4e+08 -0.141567 38.7556
5.5e+08 -0.141379 37.575
5.6e+08 -0.139416 36.4814
5.7e+08 -0.141104 35.4437
5.8e+08 -0.144348 34.4705
5.9e+08 -0.144829 33.4989
6e+08 -0.146492 32.5251
6.1e+08 -0.149866 31.5397
6.2e+08 -0.154542 30.526
6.3e+08 -0.156155 29.5346
6.4e+08 -0.154203 28.5736
6.5e+08 -0.146074 27.5998
6.6e+08 -0.135199 26.6268
6.7e+08 -0.121506 25.6443
6.8e+08 -0.109574 24.6785
6.9e+08 -0.100673 23.7694
7e+08 -0.0967659 22.8921
7.1e+08 -0.0946863 22.0498
7.2e+08 -0.0896628 21.2197
7.3e+08 -0.0897671 20.3871
7.4e+08 -0.0903275 19.5451
7.5e+08 -0.0952669 18.6787
7.6e+08 -0.100439 17.7846
7.7e+08 -0.107536 16.882
7.8e+08 -0.11641 15.9645
7.9e+08 -0.125053 15.0551
8e+08 -0.136175 14.132
8.1e+08 -0.151573 13.303
8.2e+08 -0.167635 12.526
8.3e+08 -0.181001 11.8007
8.4e+08 -0.195287 11.0708
8.5e+08 -0.210474 10.3848
8.6e+08 -0.223658 9.71221
8.7e+08 -0.238368 9.06066
8.8e+08 -0.24951 8.43378
8.9e+08 -0.259581 7.77952
9e+08 -0.272696 7.11691
9.1e+08 -0.286237 6.46439
9.2e+08 -0.29888 5.81836
9.3e+08 -0.306476 5.16644
9.4e+08 -0.30788 4.50422
9.5e+08 -0.306388 3.8607
9.6e+08 -0.305511 3.24938
9.7e+08 -0.305566 2.58047
9.8e+08 -0.30528 1.9196
9.9e+08 -0.304412 1.25139
1e+09 -0.300648 0.581854
1.01e+09 -0.299196 -0.125083
1.02e+09 -0.301213 -0.852591
1.03e+09 -0.308868 -1.63336
1.04e+09 -0.327339 -2.41738
1.05e+09 -0.357868 -3.18048
1.06e+09 -0.39834 -3.88431
1.07e+09 -0.444954 -4.48696
1.08e+09 -0.482716 -5.00815
1.09e+09 -0.510036 -5.4787
1.1e+09 -0.514334 -5.93748
1.11e+09 -0.50626 -6.45992
1.12e+09 -0.490023 -7.02924
1.13e+09 -0.455605 -7.68755
1.14e+09 -0.419819 -8.42284
1.15e+09 -0.387361 -9.23389
1.16e+09 -0.357011 -10.1143
1.17e+09 -0.334892 -11.0731
1.18e+09 -0.322798 -12.0933
1.19e+09 -0.32543 -13.1852
1.2e+09 -0.347828 -14.3523
1.21e+09 -0.388742 -15.5681
1.22e+09 -0.450779 -16.8129
1.23e+09 -0.531732 -18.0832
1.24e+09 -0.627405 -19.3431
1.25e+09 -0.735598 -20.5556
1.26e+09 -0.853322 -21.6817
1.27e+09 -0.979584 -22.6978
1.28e+09 -1.10777 -23.5557
1.29e+09 -1.23056 -24.2829
1.3e+09 -1.34074 -24.8789
1.31e+09 -1.43724 -25.392
1.32e+09 -1.52332 -25.9115
1.33e+09 -1.61073 -26.4997
1.34e+09 -1.71634 -27.1904
1.35e+09 -1.84479 -27.9151
1.36e+09 -1.98858 -28.5783
1.37e+09 -2.14121 -29.1401
1.38e+09 -2.28544 -29.554
1.39e+09 -2.41438 -29.8712
1.4e+09 -2.52561 -30.1429
1.41e+09 -2.61983 -30.3986
1.42e+09 -2.69443 -30.6134
1.43e+09 -2.75024 -30.8248
1.44e+09 -2.79042 -31.0214
1.45e+09 -2.82346 -31.2679
1.46e+09 -2.85938 -31.5747
1.47e+09 -2.90038 -31.9804
1.48e+09 -2.94853 -32.4918
1.49e+09 -3.00707 -33.0771
1.5e+09 -3.08351 -33.6925
1.51e+09 -3.17745 -34.3094
1.52e+09 -3.28062 -34.8586
1.53e+09 -3.36913 -35.3449
1.54e+09 -3.42088 -35.8504
1.55e+09 -3.44451 -36.4576
1.56e+09 -3.45753 -37.1748
1.57e+09 -3.48174 -37.994
1.58e+09 -3.52324 -38.8883
1.59e+09 -3.58221 -39.8157
1.6e+09 -3.65439 -40.7837
1.61e+09 -3.74603 -41.7876
1.62e+09 -3.86821 -42.8475
1.63e+09 -4.03079 -43.908
1.64e+09 -4.22425 -44.9251
1.65e+09 -4.42667 -45.7996
1.66e+09 -4.61472 -46.5496
1.67e+09 -4.78155 -47.2001
1.68e+09 -4.93227 -47.8941
1.69e+09 -5.07519 -48.7878
1.7e+09 -5.22084 -49.8422
1.71e+09 -5.37365 -50.8611
1.72e+09 -5.53482 -51.7877
1.73e+09 -5.70962 -52.6887
1.74e+09 -5.9107 -53.7168
1.75e+09 -6.15101 -54.9954
1.76e+09 -6.43756 -56.467
1.77e+09 -6.77705 -58.0136
1.78e+09 -7.17463 -59.5581
1.79e+09 -7.64107 -61.0513
1.8e+09 -8.18346 -62.445
1.81e+09 -8.80071 -63.6175
1.82e+09 -9.48245 -64.4626
1.83e+09 -10.2131 -64.8702
1.84e+09 -11.0052 -64.7883
1.85e+09 -11.8841 -64.1249
1.86e+09 -12.8694 -62.6781
1.87e+09 -13.9458 -60.0571
1.88e+09 -15.0843 -56.0454
1.89e+09 -16.285 -49.9762
1.9e+09 -17.462 -40.5905
1.91e+09 -18.2784 -26.8701
1.92e+09 -18.2 -10.8085
1.93e+09 -17.2211 2.58467
1.94e+09 -15.8867 11.234
1.95e+09 -14.611 16.2356
1.96e+09 -13.5033 19.2132
1.97e+09 -12.5427 21.0693
1.98e+09 -11.6921 22.2001
1.99e+09 -10.9136 22.751
2e+09 -10.1934 22.7769
2.01e+09 -9.53097 22.3552
2.02e+09 -8.93113 21.5731
2.03e+09 -8.40556 20.5871
2.04e+09 -7.94791 19.5076
2.05e+09 -7.55036 18.4119
2.06e+09 -7.20845 17.3087
2.07e+09 -6.92448 16.1909
2.08e+09 -6.69964 15.1584
2.09e+09 -6.50285 14.2909
2.1e+09 -6.32919 13.4823
2.11e+09 -6.16309 12.6799
2.12e+09 -6.01675 11.8735
2.13e+09 -5.89875 11.1415
2.14e+09 -5.80429 10.5389
2.15e+09 -5.72565 10.1519
2.16e+09 -5.65438 10.0086
2.17e+09 -5.56621 10.0729
2.18e+09 -5.44566 10.3509
2.19e+09 -5.28812 10.7059
2.2e+09 -5.09675 10.9666
2.21e+09 -4.89367 11.006
2.22e+09 -4.69578 10.7988
2.23e+09 -4.51405 10.418
2.24e+09 -4.34063 9.97392
2.25e+09 -4.17394 9.51848
2.26e+09 -4.0155 9.02794
2.27e+09 -3.86793 8.50943
2.28e+09 -3.72534 7.98725
2.29e+09 -3.58168 7.49569
2.3e+09 -3.43171 7.02473
2.31e+09 -3.28395 6.56503
2.32e+09 -3.14491 6.08328
2.33e+09 -3.0201 5.55897
2.34e+09 -2.90204 5.01536
2.35e+09 -2.78648 4.45974
2.36e+09 -2.67036 3.86933
2.37e+09 -2.55855 3.26721
2.38e+09 -2.44629 2.60041
2.39e+09 -2.33265 1.8688
2.4e+09 -2.21348 1.06693
2.41e+09 -2.10767 0.218403
2.42e+09 -2.01577 -0.625854
2.43e+09 -1.93953 -1.45342
2.44e+09 -1.87978 -2.25483
2.45e+09 -1.83177 -2.98611
2.46e+09 -1.7906 -3.62813
2.47e+09 -1.75083 -4.2088
2.48e+09 -1.70972 -4.75752
2.49e+09 -1.66685 -5.29911
2.5e+09 -1.61944 -5.83597
2.51e+09 -1.565 -6.41437
2.52e+09 -1.50553 -6.97817
2.53e+09 -1.44068 -7.56646
2.54e+09 -1.37299 -8.152
2.55e+09 -1.30185 -8.7782
2.56e+09 -1.23015 -9.42696
2.57e+09 -1.16416 -10.096
2.58e+09 -1.10346 -10.7587
2.59e+09 -1.05488 -11.4033
2.6e+09 -1.01323 -12.0392
2.61e+09 -0.976483 -12.6779
2.62e+09 -0.942003 -13.3801
2.63e+09 -0.911814 -14.1519
2.64e+09 -0.881312 -14.9717
2.65e+09 -0.853958 -15.8011
2.66e+09 -0.830564 -16.5968
2.67e+09 -0.81512 -17.3635
2.68e+09 -0.806855 -18.0769
2.69e+09 -0.808348 -18.7255
2.7e+09 -0.80917 -19.3499
2.71e+09 -0.806648 -19.9706
2.72e+09 -0.795234 -20.5584
2.73e+09 -0.783173 -21.0991
2.74e+09 -0.777475 -21.5988
2.75e+09 -0.783532 -22.1118
2.76e+09 -0.799978 -22.7444
2.77e+09 -0.808953 -23.4874
2.78e+09 -0.803277 -24.2436
2.79e+09 -0.788712 -24.8627
2.8e+09 -0.787096 -25.3796
2.81e+09 -0.805274 -25.8998
2.82e+09 -0.831246 -26.5367
2.83e+09 -0.846558 -27.2555
2.84e+09 -0.844129 -27.9072
2.85e+09 -0.833219 -28.4018
2.86e+09 -0.837146 -28.7591
2.87e+09 -0.860416 -29.1437
2.88e+09 -0.889869 -29.6795
2.89e+09 -0.899792 -30.3613
2.9e+09 -0.884241 -31.0088
2.91e+09 -0.865437 -31.4859
2.92e+09 -0.865431 -31.8351
2.93e+09 -0.89078 -32.249
2.94e+09 -0.918726 -32.836
2.95e+09 -0.926177 -33.4984
2.96e+09 -0.915606 -34.0135
2.97e+09 -0.913549 -34.289
2.98e+09 -0.948494 -34.5171
2.99e+09 -1.00961 -34.9184
3e+09 -1.05513 -35.593
3.01e+09 -1.05923 -36.3446
3.02e+09 -1.03608 -36.9442
3.03e+09 -1.01832 -37.3539
3.04e+09 -1.01982 -37.745
3.05e+09 -1.03065 -38.2802
3.06e+09 -1.02245 -38.9163
3.07e+09 -0.992595 -39.454
3.08e+09 -0.967198 -39.7691
3.09e+09 -0.977105 -39.9896
3.1e+09 -1.01578 -40.3238
3.11e+09 -1.05077 -40.8378
3.12e+09 -1.05971 -41.4457
3.13e+09 -1.04851 -41.9502
3.14e+09 -1.03909 -42.3196
3.15e+09 -1.04659 -42.6941
3.16e+09 -1.06133 -43.2359
3.17e+09 -1.05812 -43.9685
3.18e+09 -1.02515 -44.7258
3.19e+09 -0.96755 -45.2774
3.2e+09 -0.918973 -45.6467
3.21e+09 -0.896928 -45.9388
3.22e+09 -0.893955 -46.332
3.23e+09 -0.889319 -46.8578
3.24e+09 -0.859755 -47.36
3.25e+09 -0.828105 -47.6497
3.26e+09 -0.819104 -47.8281
3.27e+09 -0.85833 -48.104
3.28e+09 -0.907766 -48.7377
3.29e+09 -0.918629 -49.6588
3.3e+09 -0.876326 -50.5642
3.31e+09 -0.808074 -51.2283
3.32e+09 -0.753213 -51.6641
3.33e+09 -0.726878 -52.1519
3.34e+09 -0.708556 -52.8071
3.35e+09 -0.666807 -53.525
3.36e+09 -0.610977 -54.0231
3.37e+09 -0.579297 -54.2527
3.38e+09 -0.593641 -54.3318
3.39e+09 -0.654438 -54.6865
3.4e+09 -0.708233 -55.4053
3.41e+09 -0.71171 -56.3094
3.42e+09 -0.67009 -57.0599
3.43e+09 -0.627789 -57.6066
3.44e+09 -0.62209 -58.1668
3.45e+09 -0.627507 -58.9613
3.46e+09 -0.608615 -59.9265
3.47e+09 -0.542998 -60.8733
3.48e+09 -0.454387 -61.5249
3.49e+09 -0.388537 -61.841
3.5e+09 -0.369073 -62.0071
3.51e+09 -0.393711 -62.2963
3.52e+09 -0.42289 -62.7706
3.53e+09 -0.436883 -63.3419
3.54e+09 -0.435766 -63.898
3.55e+09 -0.439411 -64.3517
3.56e+09 -0.461478 -64.8671
3.57e+09 -0.498976 -65.5404
3.58e+09 -0.512665 -66.4254
3.59e+09 -0.493343 -67.3288
3.6e+09 -0.446919 -68.0544
3.61e+09 -0.403989 -68.5671
3.62e+09 -0.385302 -68.9812
3.63e+09 -0.382039 -69.4376
3.64e+09 -0.376714 -69.9473
3.65e+09 -0.360728 -70.4011
3.66e+09 -0.350377 -70.6609
3.67e+09 -0.369777 -70.8229
3.68e+09 -0.424989 -71.1028
3.69e+09 -0.491138 -71.6313
3.7e+09 -0.530862 -72.3937
3.71e+09 -0.532891 -73.1819
3.72e+09 -0.515002 -73.8067
3.73e+09 -0.502869 -74.3122
3.74e+09 -0.507387 -74.7938
3.75e+09 -0.517626 -75.3419
3.76e+09 -0.516289 -75.8948
3.77e+09 -0.500681 -76.3065
3.78e+09 -0.49125 -76.4944
3.79e+09 -0.514095 -76.5972
3.8e+09 -0.566309 -76.7455
3.81e+09 -0.629506 -77.0647
3.82e+09 -0.685835 -77.4777
3.83e+09 -0.730571 -77.8791
3.84e+09 -0.765483 -78.2545
3.85e+09 -0.80755 -78.5571
3.86e+09 -0.859758 -78.9611
3.87e+09 -0.902501 -79.4145
3.88e+09 -0.927125 -79.8506
3.89e+09 -0.939037 -80.1355
3.9e+09 -0.950704 -80.2677
3.91e+09 -0.985366 -80.3334
3.92e+09 -1.04117 -80.4197
3.93e+09 -1.09911 -80.5945
3.94e+09 -1.15265 -80.7575
3.95e+09 -1.20703 -80.891
3.96e+09 -1.27286 -81.0683
3.97e+09 -1.34574 -81.2894
3.98e+09 -1.4094 -81.609
3.99e+09 -1.45471 -81.9092
4e+09 -1.48994 -82.0815
4.01e+09 -1.52089 -82.1172
4.02e+09 -1.55337 -82.0851
4.03e+09 -1.59411 -82.0093
4.04e+09 -1.6432 -81.9126
4.05e+09 -1.69789 -81.7885
4.06e+09 -1.76142 -81.6425
4.07e+09 -1.82941 -81.4876
4.08e+09 -1.90414 -81.348
4.09e+09 -1.98676 -81.2358
4.1e+09 -2.07355 -81.1565
4.11e+09 -2.14702 -81.144
4.12e+09 -2.2004 -81.092
4.13e+09 -2.23121 -81.0069
4.14e+09 -2.2584 -80.8779
4.15e+09 -2.29269 -80.7543
4.16e+09 -2.33701 -80.6636
4.17e+09 -2.3741 -80.5971
4.18e+09 -2.40399 -80.426
4.19e+09 -2.42724 -80.2152
4.2e+09 -2.45961 -79.9669
4.21e+09 -2.51011 -79.7174
4.22e+09 -2.56471 -79.5603
4.23e+09 -2.60838 -79.4856
4.24e+09 -2.63131 -79.4252
4.25e+09 -2.64055 -79.3383
4.26e+09 -2.65769 -79.2116
4.27e+09 -2.684 -79.0717
4.28e+09 -2.71098 -78.9428
4.29e+09 -2.72595 -78.784
4.3e+09 -2.72711 -78.5953
4.31e+09 -2.72098 -78.3734
4.32e+09 -2.71345 -78.1636
4.33e+09 -2.7256 -78.0343
4.34e+09 -2.73418 -78.0242
4.35e+09 -2.73453 -78.1433
4.36e+09 -2.72846 -78.3409
4.37e+09 -2.7166 -78.5959
4.38e+09 -2.7035 -78.8102
4.39e+09 -2.68584 -78.988
4.4e+09 -2.67053 -79.1151
4.41e+09 -2.65112 -79.2134
4.42e+09 -2.63121 -79.2929
4.43e+09 -2.60449 -79.3713
4.44e+09 -2.57913 -79.442
4.45e+09 -2.55842 -79.4485
4.46e+09 -2.54514 -79.5624
4.47e+09 -2.53555 -79.7759
4.48e+09 -2.52847 -80.1343
4.49e+09 -2.51544 -80.6023
4.5e+09 -2.48782 -81.1323
4.51e+09 -2.44923 -81.6611
4.52e+09 -2.40911 -82.1755
4.53e+09 -2.3714 -82.6556
4.54e+09 -2.33264 -83.1214
4.55e+09 -2.28784 -83.5506
4.56e+09 -2.24105 -83.9255
4.57e+09 -2.19517 -84.2551
4.58e+09 -2.1556 -84.5661
4.59e+09 -2.12532 -84.9281
4.6e+09 -2.10428 -85.3656
4.61e+09 -2.08316 -85.948
4.62e+09 -2.06155 -86.6201
4.63e+09 -2.0363 -87.3186
4.64e+09 -2.01156 -88.0293
4.65e+09 -1.9873 -88.7688
4.66e+09 -1.95985 -89.4827
4.67e+09 -1.9327 -90.1556
4.68e+09 -1.90256 -90.7698
4.69e+09 -1.87271 -91.3266
4.7e+09 -1.84642 -91.8304
4.71e+09 -1.81651 -92.3131
4.72e+09 -1.79136 -92.7871
4.73e+09 -1.76696 -93.2865
4.74e+09 -1.7479 -93.8634
4.75e+09 -1.7288 -94.5164
4.76e+09 -1.70568 -95.2266
4.77e+09 -1.67857 -95.9322
4.78e+09 -1.64709 -96.634
4.79e+09 -1.61481 -97.3137
4.8e+09 -1.58112 -97.9545
4.81e+09 -1.54946 -98.5435
4.82e+09 -1.51995 -99.0872
4.83e+09 -1.48433 -99.5954
4.84e+09 -1.4528 -100.065
4.85e+09 -1.42447 -100.554
4.86e+09 -1.40285 -101.094
4.87e+09 -1.38516 -101.714
4.88e+09 -1.37598 -102.396
4.89e+09 -1.36774 -103.141
4.9e+09 -1.3576 -103.891
4.91e+09 -1.34514 -104.622
4.92e+09 -1.32798 -105.353
4.93e+09 -1.31246 -106.037
4.94e+09 -1.29803 -106.657
4.95e+09 -1.28276 -107.228
4.96e+09 -1.2626 -107.748
4.97e+09 -1.25475 -108.218
4.98e+09 -1.24669 -108.685
4.99e+09 -1.24505 -109.152
5e+09 -1.25019 -109.63
5.01e+09 -1.26179 -110.149
5.02e+09 -1.27136 -110.693
5.03e+09 -1.27891 -111.274
5.04e+09 -1.28589 -111.835
5.05e+09 -1.2906 -112.315
5.06e+09 -1.29432 -112.767
5.07e+09 -1.29232 -113.185
5.08e+09 -1.28748 -113.606
5.09e+09 -1.27759 -113.964
5.1e+09 -1.26716 -114.298
5.11e+09 -1.26316 -114.617
5.12e+09 -1.26542 -114.961
5.13e+09 -1.27296 -115.325
5.14e+09 -1.2826 -115.717
5.15e+09 -1.29162 -116.144
5.16e+09 -1.3051 -116.577
5.17e+09 -1.31582 -116.934
5.18e+09 -1.32019 -117.288
5.19e+09 -1.31856 -117.622
5.2e+09 -1.31691 -117.898
5.21e+09 -1.31433 -118.147
5.22e+09 -1.31366 -118.328
5.23e+09 -1.31409 -118.51
5.24e+09 -1.31422 -118.664
5.25e+09 -1.3219 -118.817
5.26e+09 -1.32459 -119.03
5.27e+09 -1.32679 -119.282
5.28e+09 -1.3299 -119.581
5.29e+09 -1.33306 -119.932
5.3e+09 -1.33729 -120.264
5.31e+09 -1.3425 -120.592
5.32e+09 -1.34812 -120.885
5.33e+09 -1.35646 -121.175
5.34e+09 -1.37364 -121.467
5.35e+09 -1.41174 -121.773
5.36e+09 -1.48669 -122.12
5.37e+09 -1.57245 -122.55
5.38e+09 -1.64365 -122.832
5.39e+09 -1.69744 -123.039
5.4e+09 -1.73493 -123.264
