! Touchstone file generated by Optenni Lab on 2026-07-16T18:24:52
# Hz S RI R 50
! freq S11(real imag) S21(real imag) S12(real imag) S22(real imag)
1e+08 0.00547603 0.0479679 0.994183 -0.0542146 0.994183 -0.0542146 0.0061176 0.0478928
1.1e+08 0.00611207 0.0527241 0.993472 -0.0595905 0.993472 -0.0595905 0.00688766 0.052631
1.2e+08 0.00676148 0.0574772 0.992743 -0.0649622 0.992743 -0.0649622 0.00768374 0.0573639
1.3e+08 0.00749187 0.062211 0.991928 -0.0703132 0.991928 -0.0703132 0.00857318 0.0620743
1.4e+08 0.00821669 0.0669464 0.991114 -0.0756648 0.991114 -0.0756648 0.00946973 0.0667843
1.5e+08 0.00902609 0.0716595 0.990209 -0.0809924 0.990209 -0.0809924 0.0104631 0.0714684
1.6e+08 0.00984395 0.0763703 0.989284 -0.0863159 0.989284 -0.0863159 0.0114772 0.0761464
1.7e+08 0.0107099 0.0810671 0.988305 -0.0916238 0.988305 -0.0916238 0.0125517 0.0808071
1.8e+08 0.0116258 0.0857497 0.987272 -0.0969158 0.987272 -0.0969158 0.0136883 0.0854498
1.9e+08 0.0125525 0.090429 0.986223 -0.102203 0.986223 -0.102203 0.0148481 0.0900863
2e+08 0.0135665 0.0950802 0.985081 -0.10746 0.985081 -0.10746 0.016107 0.0946899
2.1e+08 0.0145716 0.0997346 0.983936 -0.112718 0.983936 -0.112718 0.0173692 0.0992923
2.2e+08 0.0156589 0.10436 0.982704 -0.117945 0.982704 -0.117945 0.018725 0.10386
2.3e+08 0.0167623 0.10898 0.981451 -0.123164 0.981451 -0.123164 0.0201091 0.10842
2.4e+08 0.0179101 0.113584 0.980148 -0.128365 0.980148 -0.128365 0.0215495 0.112958
2.5e+08 0.0191108 0.118167 0.978788 -0.133544 0.978788 -0.133544 0.0230542 0.117471
2.6e+08 0.0203154 0.122748 0.977412 -0.138717 0.977412 -0.138717 0.0245746 0.121976
2.7e+08 0.0216093 0.127293 0.975942 -0.143851 0.975942 -0.143851 0.0261951 0.126438
2.8e+08 0.0228984 0.13184 0.974472 -0.148985 0.974472 -0.148985 0.0278229 0.130898
2.9e+08 0.0242638 0.136352 0.972921 -0.154083 0.972921 -0.154083 0.0295378 0.135318
3e+08 0.0256481 0.140856 0.971347 -0.159169 0.971347 -0.159169 0.0312832 0.139725
3.1e+08 0.0270687 0.145343 0.969724 -0.164234 0.969724 -0.164234 0.0330755 0.144106
3.2e+08 0.028544 0.149803 0.968043 -0.16927 0.968043 -0.16927 0.0349333 0.148455
3.3e+08 0.0300233 0.154262 0.966352 -0.174302 0.966352 -0.174302 0.0368068 0.152797
3.4e+08 0.0315912 0.158674 0.96457 -0.179284 0.96457 -0.179284 0.0387785 0.157085
3.5e+08 0.0331543 0.163089 0.962786 -0.184267 0.962786 -0.184267 0.0407572 0.161372
3.6e+08 0.0347837 0.167467 0.960926 -0.189208 0.960926 -0.189208 0.0428114 0.16561
3.7e+08 0.0364348 0.171833 0.95904 -0.194134 0.95904 -0.194134 0.0448982 0.169832
3.8e+08 0.0381203 0.176178 0.957115 -0.199037 0.957115 -0.199037 0.0470299 0.174027
3.9e+08 0.0398606 0.180491 0.955132 -0.203903 0.955132 -0.203903 0.0492262 0.178181
4e+08 0.0416014 0.184805 0.953142 -0.208768 0.953142 -0.208768 0.051434 0.18233
4.1e+08 0.0434255 0.189064 0.95106 -0.213572 0.95106 -0.213572 0.0537329 0.186413
4.2e+08 0.0452458 0.193326 0.948977 -0.218378 0.948977 -0.218378 0.0560392 0.190495
4.3e+08 0.047128 0.197547 0.946828 -0.223137 0.946828 -0.223137 0.0584162 0.194525
4.4e+08 0.0490337 0.201751 0.944652 -0.227878 0.944652 -0.227878 0.0608268 0.198533
4.5e+08 0.0509679 0.205936 0.942443 -0.232594 0.942443 -0.232594 0.0632756 0.202513
4.6e+08 0.0529534 0.210082 0.940173 -0.237268 0.940173 -0.237268 0.0657832 0.206444
4.7e+08 0.0549372 0.214232 0.9379 -0.241941 0.9379 -0.241941 0.0683001 0.210372
4.8e+08 0.0570035 0.218316 0.935542 -0.246545 0.935542 -0.246545 0.0709062 0.214224
4.9e+08 0.0590666 0.222405 0.933184 -0.25115 0.933184 -0.25115 0.07352 0.218075
5e+08 0.0611833 0.226449 0.930767 -0.255706 0.930767 -0.255706 0.0761947 0.221872
5.1e+08 0.0633219 0.230476 0.928319 -0.260239 0.928319 -0.260239 0.0788996 0.22564
5.2e+08 0.0654847 0.234482 0.925843 -0.264748 0.925843 -0.264748 0.0816377 0.22938
5.3e+08 0.0676996 0.238442 0.923313 -0.269207 0.923313 -0.269207 0.084435 0.233064
5.4e+08 0.0699116 0.242407 0.920782 -0.273668 0.920782 -0.273668 0.08724 0.236747
5.5e+08 0.0721986 0.246301 0.918172 -0.278052 0.918172 -0.278052 0.0901247 0.240347
5.6e+08 0.0744816 0.250201 0.915556 -0.282436 0.915556 -0.282436 0.0930145 0.243942
5.7e+08 0.0768113 0.254054 0.912892 -0.28677 0.912892 -0.28677 0.0959575 0.247482
5.8e+08 0.0791657 0.257884 0.9102 -0.291077 0.9102 -0.291077 0.0989334 0.25099
5.9e+08 0.0815398 0.261695 0.907485 -0.295361 0.907485 -0.295361 0.101937 0.25447
6e+08 0.0839623 0.265455 0.904717 -0.299588 0.904717 -0.299588 0.104995 0.257888
6.1e+08 0.0863805 0.269221 0.901945 -0.303817 0.901945 -0.303817 0.108057 0.261302
6.2e+08 0.088864 0.272913 0.899107 -0.307966 0.899107 -0.307966 0.111187 0.264631
6.3e+08 0.0913486 0.276607 0.896264 -0.312114 0.896264 -0.312114 0.114329 0.267953
6.4e+08 0.0938726 0.280255 0.89338 -0.316211 0.89338 -0.316211 0.117515 0.27122
6.5e+08 0.0964202 0.283875 0.890467 -0.320276 0.890467 -0.320276 0.120731 0.274449
6.6e+08 0.0989814 0.28748 0.887533 -0.324319 0.887533 -0.324319 0.123967 0.27765
6.7e+08 0.101588 0.291028 0.884553 -0.3283 0.884553 -0.3283 0.127253 0.280783
6.8e+08 0.104193 0.29458 0.88157 -0.332282 0.88157 -0.332282 0.130546 0.283914
6.9e+08 0.106854 0.298058 0.878532 -0.336185 0.878532 -0.336185 0.133897 0.286959
7e+08 0.109517 0.301536 0.875486 -0.340082 0.875486 -0.340082 0.137258 0.289993
7.1e+08 0.112211 0.304969 0.872403 -0.343929 0.872403 -0.343929 0.140653 0.29297
7.2e+08 0.114928 0.308372 0.869295 -0.34774 0.869295 -0.34774 0.144077 0.295906
7.3e+08 0.117657 0.311758 0.866173 -0.351532 0.866173 -0.351532 0.14752 0.298817
7.4e+08 0.120427 0.315083 0.863008 -0.355256 0.863008 -0.355256 0.151006 0.301655
7.5e+08 0.123196 0.318413 0.85984 -0.358981 0.85984 -0.358981 0.154499 0.304489
7.6e+08 0.126008 0.321671 0.856624 -0.362627 0.856624 -0.362627 0.158034 0.307236
7.7e+08 0.128826 0.324924 0.8534 -0.366264 0.8534 -0.366264 0.161583 0.30997
7.8e+08 0.13167 0.328134 0.850149 -0.369853 0.850149 -0.369853 0.165161 0.31265
7.9e+08 0.134535 0.331309 0.846874 -0.373402 0.846874 -0.373402 0.168765 0.315284
8e+08 0.137409 0.33447 0.843587 -0.376933 0.843587 -0.376933 0.172383 0.317895
8.1e+08 0.140318 0.337568 0.840262 -0.380392 0.840262 -0.380392 0.176034 0.320427
8.2e+08 0.143226 0.34067 0.836933 -0.383852 0.836933 -0.383852 0.179693 0.322955
8.3e+08 0.146171 0.3437 0.833569 -0.387235 0.833569 -0.387235 0.183389 0.325399
8.4e+08 0.149122 0.346722 0.830196 -0.390606 0.830196 -0.390606 0.187097 0.327827
8.5e+08 0.152093 0.349704 0.826801 -0.39393 0.826801 -0.39393 0.190826 0.330201
8.6e+08 0.155082 0.352649 0.823383 -0.397211 0.823383 -0.397211 0.194575 0.332525
8.7e+08 0.158077 0.355582 0.819956 -0.400476 0.819956 -0.400476 0.198335 0.334829
8.8e+08 0.161104 0.358446 0.8165 -0.403667 0.8165 -0.403667 0.202126 0.337052
8.9e+08 0.16413 0.361315 0.813041 -0.406858 0.813041 -0.406858 0.205925 0.339271
9e+08 0.167185 0.364115 0.809552 -0.409974 0.809552 -0.409974 0.209749 0.341408
9.1e+08 0.170245 0.366905 0.806053 -0.413075 0.806053 -0.413075 0.213581 0.343523
9.2e+08 0.17332 0.369657 0.802538 -0.416132 0.802538 -0.416132 0.21743 0.345589
9.3e+08 0.176413 0.372367 0.799006 -0.419142 0.799006 -0.419142 0.221298 0.347603
9.4e+08 0.179509 0.375069 0.795468 -0.422141 0.795468 -0.422141 0.225176 0.349599
9.5e+08 0.182631 0.3777 0.791904 -0.425061 0.791904 -0.425061 0.229075 0.351511
9.6e+08 0.185752 0.380336 0.788335 -0.427981 0.788335 -0.427981 0.232977 0.353416
9.7e+08 0.188895 0.382906 0.784746 -0.43083 0.784746 -0.43083 0.236899 0.355244
9.8e+08 0.192044 0.385462 0.78115 -0.43366 0.78115 -0.43366 0.240831 0.357049
9.9e+08 0.195204 0.387982 0.777542 -0.43645 0.777542 -0.43645 0.244776 0.358807
1e+09 0.198377 0.390459 0.77392 -0.439191 0.77392 -0.439191 0.248732 0.36051
1.01e+09 0.201553 0.392932 0.77029 -0.441921 0.77029 -0.441921 0.252693 0.362197
1.02e+09 0.204748 0.39533 0.766643 -0.444572 0.766643 -0.444572 0.256669 0.363798
1.03e+09 0.207944 0.397733 0.762994 -0.447223 0.762994 -0.447223 0.260653 0.365395
1.04e+09 0.211155 0.400072 0.759331 -0.449807 0.759331 -0.449807 0.264648 0.366918
1.05e+09 0.214371 0.402396 0.75566 -0.452369 0.75566 -0.452369 0.26865 0.368413
1.06e+09 0.217595 0.404689 0.751979 -0.454893 0.751979 -0.454893 0.272656 0.369865
1.07e+09 0.220828 0.406936 0.748289 -0.457367 0.748289 -0.457367 0.276672 0.37126
1.08e+09 0.224064 0.40918 0.744595 -0.459833 0.744595 -0.459833 0.280695 0.372643
1.09e+09 0.227314 0.411348 0.740891 -0.46222 0.740891 -0.46222 0.284726 0.373941
1.1e+09 0.230565 0.413521 0.737182 -0.464605 0.737182 -0.464605 0.288761 0.375231
1.11e+09 0.233824 0.415636 0.733463 -0.466926 0.733463 -0.466926 0.292798 0.376451
1.12e+09 0.237088 0.417732 0.729739 -0.469223 0.729739 -0.469223 0.296842 0.377642
1.13e+09 0.240357 0.4198 0.726012 -0.471488 0.726012 -0.471488 0.300891 0.378795
1.14e+09 0.243632 0.421818 0.722279 -0.4737 0.722279 -0.4737 0.304944 0.37989
1.15e+09 0.246909 0.423839 0.718541 -0.475907 0.718541 -0.475907 0.309001 0.380974
1.16e+09 0.250194 0.425784 0.714797 -0.478032 0.714797 -0.478032 0.313055 0.381971
1.17e+09 0.25348 0.427732 0.711049 -0.480157 0.711049 -0.480157 0.317115 0.382962
1.18e+09 0.256771 0.429626 0.7073 -0.482223 0.7073 -0.482223 0.321176 0.383889
1.19e+09 0.260064 0.431498 0.703548 -0.484264 0.703548 -0.484264 0.325241 0.384786
1.2e+09 0.26336 0.433346 0.699791 -0.486274 0.699791 -0.486274 0.329305 0.385645
1.21e+09 0.266659 0.435146 0.696032 -0.488229 0.696032 -0.488229 0.333365 0.386446
1.22e+09 0.26996 0.436948 0.69227 -0.490183 0.69227 -0.490183 0.337432 0.387238
1.23e+09 0.273263 0.438674 0.68851 -0.492057 0.68851 -0.492057 0.341492 0.387947
1.24e+09 0.276567 0.440402 0.684747 -0.49393 0.684747 -0.49393 0.345558 0.388649
1.25e+09 0.279873 0.442082 0.680984 -0.495748 0.680984 -0.495748 0.349617 0.38929
1.26e+09 0.283179 0.44374 0.677218 -0.497537 0.677218 -0.497537 0.353673 0.389898
1.27e+09 0.286486 0.445376 0.673452 -0.499301 0.673452 -0.499301 0.357731 0.390474
1.28e+09 0.289793 0.446961 0.66969 -0.501011 0.66969 -0.501011 0.361783 0.390993
1.29e+09 0.293101 0.448549 0.665924 -0.502719 0.665924 -0.502719 0.36584 0.391504
1.3e+09 0.296406 0.450066 0.662164 -0.504351 0.662164 -0.504351 0.369882 0.391934
1.31e+09 0.299713 0.451586 0.6584 -0.505978 0.6584 -0.505978 0.373926 0.392354
1.32e+09 0.303018 0.453059 0.654641 -0.507557 0.654641 -0.507557 0.377962 0.392721
1.33e+09 0.306322 0.454508 0.650883 -0.509107 0.650883 -0.509107 0.381997 0.393054
1.34e+09 0.309626 0.455937 0.647127 -0.510634 0.647127 -0.510634 0.386031 0.39336
1.35e+09 0.312925 0.457318 0.643376 -0.512106 0.643376 -0.512106 0.390051 0.393606
1.36e+09 0.316226 0.458702 0.63962 -0.513576 0.63962 -0.513576 0.394072 0.393843
1.37e+09 0.31952 0.46002 0.635877 -0.514976 0.635877 -0.514976 0.398078 0.394007
1.38e+09 0.322816 0.461335 0.632132 -0.516371 0.632132 -0.516371 0.402087 0.394161
1.39e+09 0.326106 0.46261 0.628395 -0.517721 0.628395 -0.517721 0.406087 0.394266
1.4e+09 0.329394 0.46386 0.624659 -0.51904 0.624659 -0.51904 0.410076 0.394335
1.41e+09 0.332681 0.465095 0.620924 -0.520339 0.620924 -0.520339 0.414062 0.394378
1.42e+09 0.33596 0.466279 0.6172 -0.521585 0.6172 -0.521585 0.418033 0.394364
1.43e+09 0.339241 0.467466 0.613474 -0.522829 0.613474 -0.522829 0.422008 0.394344
1.44e+09 0.342511 0.468591 0.609764 -0.524009 0.609764 -0.524009 0.425964 0.394257
1.45e+09 0.345782 0.469714 0.60605 -0.52518 0.60605 -0.52518 0.429916 0.394154
1.46e+09 0.349046 0.470802 0.602344 -0.52631 0.602344 -0.52631 0.433854 0.394007
1.47e+09 0.352306 0.471862 0.598645 -0.527411 0.598645 -0.527411 0.437785 0.393825
1.48e+09 0.355564 0.472908 0.594949 -0.528494 0.594949 -0.528494 0.441713 0.393622
1.49e+09 0.358811 0.473906 0.591268 -0.529526 0.591268 -0.529526 0.445623 0.393364
1.5e+09 0.36206 0.474906 0.587582 -0.530553 0.587582 -0.530553 0.449531 0.393096
1.51e+09 0.365295 0.475852 0.583913 -0.531522 0.583913 -0.531522 0.453414 0.392767
1.52e+09 0.368531 0.476792 0.580245 -0.532482 0.580245 -0.532482 0.457297 0.392423
1.53e+09 0.371758 0.477698 0.576588 -0.533406 0.576588 -0.533406 0.461168 0.392041
1.54e+09 0.374978 0.478578 0.57294 -0.5343 0.57294 -0.5343 0.465028 0.391624
1.55e+09 0.378197 0.479448 0.569292 -0.535178 0.569292 -0.535178 0.468879 0.391185
1.56e+09 0.381402 0.48027 0.565662 -0.536004 0.565662 -0.536004 0.472706 0.390693
1.57e+09 0.384609 0.481094 0.562029 -0.536829 0.562029 -0.536829 0.476536 0.390193
1.58e+09 0.3878 0.481867 0.558417 -0.537601 0.558417 -0.537601 0.480341 0.389639
1.59e+09 0.39099 0.482633 0.554807 -0.538362 0.554807 -0.538362 0.484145 0.389069
1.6e+09 0.394171 0.483371 0.551206 -0.53909 0.551206 -0.53909 0.487929 0.388462
1.61e+09 0.397344 0.484082 0.547616 -0.539786 0.547616 -0.539786 0.491697 0.38782
1.62e+09 0.400515 0.484785 0.544028 -0.540471 0.544028 -0.540471 0.495463 0.387162
1.63e+09 0.403668 0.48544 0.540462 -0.541107 0.540462 -0.541107 0.499203 0.386454
1.64e+09 0.406824 0.486096 0.536894 -0.541741 0.536894 -0.541741 0.502946 0.385737
1.65e+09 0.409963 0.486709 0.533346 -0.542326 0.533346 -0.542326 0.506657 0.384969
1.66e+09 0.4131 0.487313 0.5298 -0.542898 0.5298 -0.542898 0.510361 0.384184
1.67e+09 0.416227 0.487892 0.526266 -0.543442 0.526266 -0.543442 0.514052 0.383368
1.68e+09 0.419343 0.488443 0.522746 -0.543957 0.522746 -0.543957 0.517727 0.382519
1.69e+09 0.422458 0.488988 0.519229 -0.544461 0.519229 -0.544461 0.521399 0.381656
1.7e+09 0.425553 0.489488 0.515734 -0.544917 0.515734 -0.544917 0.525036 0.380742
1.71e+09 0.428651 0.48999 0.512236 -0.54537 0.512236 -0.54537 0.528673 0.37982
1.72e+09 0.43173 0.490451 0.508761 -0.545781 0.508761 -0.545781 0.532283 0.378854
1.73e+09 0.434805 0.490902 0.505291 -0.546178 0.505291 -0.546178 0.535888 0.377872
1.74e+09 0.437871 0.49133 0.501833 -0.546552 0.501833 -0.546552 0.539479 0.376862
1.75e+09 0.440925 0.491733 0.498389 -0.546893 0.498389 -0.546893 0.543044 0.375817
1.76e+09 0.443978 0.492132 0.494946 -0.547227 0.494946 -0.547227 0.546605 0.37476
1.77e+09 0.447009 0.492486 0.49153 -0.547516 0.49153 -0.547516 0.550135 0.373657
1.78e+09 0.450041 0.492842 0.488113 -0.547802 0.488113 -0.547802 0.553666 0.372547
1.79e+09 0.453055 0.493161 0.484719 -0.548052 0.484719 -0.548052 0.557171 0.371398
1.8e+09 0.456064 0.49347 0.481329 -0.548284 0.481329 -0.548284 0.560661 0.370229
1.81e+09 0.459064 0.493761 0.47795 -0.548496 0.47795 -0.548496 0.564135 0.369035
1.82e+09 0.462049 0.494024 0.47459 -0.548679 0.47459 -0.548679 0.567588 0.367811
1.83e+09 0.465034 0.494285 0.471231 -0.548856 0.471231 -0.548856 0.57104 0.366577
1.84e+09 0.467995 0.494504 0.467902 -0.548991 0.467902 -0.548991 0.574459 0.365299
1.85e+09 0.470958 0.494724 0.464568 -0.54912 0.464568 -0.54912 0.57787 0.364012
1.86e+09 0.473902 0.494913 0.461258 -0.549216 0.461258 -0.549216 0.581253 0.36269
1.87e+09 0.476839 0.49509 0.457955 -0.549298 0.457955 -0.549298 0.584627 0.361351
1.88e+09 0.479768 0.49525 0.454664 -0.549362 0.454664 -0.549362 0.587988 0.35999
1.89e+09 0.48268 0.495384 0.451394 -0.549398 0.451394 -0.549398 0.591326 0.358601
1.9e+09 0.485594 0.495519 0.448121 -0.549427 0.448121 -0.549427 0.594655 0.3572
1.91e+09 0.488481 0.495613 0.444879 -0.549416 0.444879 -0.549416 0.597946 0.355759
1.92e+09 0.491369 0.495707 0.441637 -0.549402 0.441637 -0.549402 0.601239 0.35431
1.93e+09 0.494239 0.495773 0.438417 -0.54936 0.438417 -0.54936 0.604505 0.352832
1.94e+09 0.497102 0.495827 0.435207 -0.549303 0.435207 -0.549303 0.607761 0.351337
1.95e+09 0.499956 0.495869 0.432006 -0.549227 0.432006 -0.549227 0.610994 0.34982
1.96e+09 0.502792 0.495884 0.428826 -0.549125 0.428826 -0.549125 0.614202 0.348275
1.97e+09 0.50563 0.4959 0.425645 -0.54902 0.425645 -0.54902 0.617411 0.346723
1.98e+09 0.50844 0.495878 0.422498 -0.548878 0.422498 -0.548878 0.620581 0.345135
1.99e+09 0.511251 0.495855 0.41935 -0.548732 0.41935 -0.548732 0.623753 0.343539
2e+09 0.514044 0.49581 0.416222 -0.548558 0.416222 -0.548558 0.626889 0.341914
2.01e+09 0.516829 0.495751 0.413105 -0.54837 0.413105 -0.54837 0.630011 0.340272
2.02e+09 0.519606 0.495682 0.409998 -0.548169 0.409998 -0.548169 0.633122 0.338614
2.03e+09 0.522363 0.495587 0.406915 -0.547942 0.406915 -0.547942 0.636207 0.33693
2.04e+09 0.525122 0.495493 0.403831 -0.547713 0.403831 -0.547713 0.639292 0.33524
2.05e+09 0.527854 0.495365 0.400778 -0.547447 0.400778 -0.547447 0.64233 0.333514
2.06e+09 0.530586 0.495237 0.397725 -0.547178 0.397725 -0.547178 0.645366 0.33178
2.07e+09 0.5333 0.495087 0.394693 -0.546886 0.394693 -0.546886 0.648378 0.330023
2.08e+09 0.536004 0.494924 0.391674 -0.546581 0.391674 -0.546581 0.651376 0.32825
2.09e+09 0.538701 0.494752 0.388665 -0.546264 0.388665 -0.546264 0.654363 0.326464
2.1e+09 0.541378 0.494557 0.385677 -0.545921 0.385677 -0.545921 0.657311 0.324651
2.11e+09 0.544057 0.494362 0.382689 -0.545574 0.382689 -0.545574 0.66026 0.32283
2.12e+09 0.546708 0.494137 0.379734 -0.545199 0.379734 -0.545199 0.663172 0.320982
2.13e+09 0.549359 0.49391 0.37678 -0.544819 0.37678 -0.544819 0.666082 0.319125
2.14e+09 0.551992 0.493664 0.373847 -0.54442 0.373847 -0.54442 0.668969 0.317249
2.15e+09 0.554615 0.493407 0.370925 -0.544004 0.370925 -0.544004 0.671829 0.315354
2.16e+09 0.557232 0.493142 0.368012 -0.543578 0.368012 -0.543578 0.674679 0.313448
2.17e+09 0.559827 0.492854 0.365124 -0.543131 0.365124 -0.543131 0.677501 0.311519
2.18e+09 0.562424 0.492566 0.362236 -0.54268 0.362236 -0.54268 0.680322 0.309584
2.19e+09 0.564993 0.492252 0.35938 -0.542205 0.35938 -0.542205 0.683108 0.307624
2.2e+09 0.567562 0.491936 0.356524 -0.54172 0.356524 -0.54172 0.685879 0.305654
2.21e+09 0.570115 0.491604 0.353688 -0.54122 0.353688 -0.54122 0.688629 0.303666
2.22e+09 0.572656 0.491259 0.350866 -0.540706 0.350866 -0.540706 0.691361 0.301664
2.23e+09 0.575191 0.490907 0.348052 -0.540185 0.348052 -0.540185 0.694085 0.299651
2.24e+09 0.577703 0.490535 0.345265 -0.539643 0.345265 -0.539643 0.696779 0.297619
2.25e+09 0.580218 0.490163 0.342476 -0.539094 0.342476 -0.539094 0.699461 0.295577
2.26e+09 0.582706 0.489768 0.339716 -0.538524 0.339716 -0.538524 0.70211 0.293514
2.27e+09 0.585192 0.48937 0.336961 -0.537949 0.336961 -0.537949 0.704753 0.291443
2.28e+09 0.587663 0.488957 0.334225 -0.537359 0.334225 -0.537359 0.707377 0.289358
2.29e+09 0.590121 0.488532 0.331504 -0.536757 0.331504 -0.536757 0.709981 0.287258
2.3e+09 0.592575 0.488104 0.328787 -0.536144 0.328787 -0.536144 0.712566 0.285147
2.31e+09 0.595005 0.487655 0.326098 -0.535513 0.326098 -0.535513 0.715122 0.283018
2.32e+09 0.597437 0.487206 0.323409 -0.534879 0.323409 -0.534879 0.717676 0.280883
2.33e+09 0.599843 0.486736 0.320749 -0.534227 0.320749 -0.534227 0.720199 0.27873
2.34e+09 0.602247 0.486263 0.318095 -0.533568 0.318095 -0.533568 0.722714 0.276569
2.35e+09 0.604637 0.485779 0.315455 -0.532894 0.315455 -0.532894 0.725199 0.274393
2.36e+09 0.607013 0.485282 0.312832 -0.532209 0.312832 -0.532209 0.727666 0.272204
2.37e+09 0.609385 0.484782 0.310215 -0.531517 0.310215 -0.531517 0.730126 0.270007
2.38e+09 0.611733 0.484263 0.307626 -0.530809 0.307626 -0.530809 0.732554 0.267795
2.39e+09 0.614082 0.483744 0.305037 -0.530098 0.305037 -0.530098 0.73498 0.265575
2.4e+09 0.616408 0.483208 0.302474 -0.529367 0.302474 -0.529367 0.737366 0.263339
2.41e+09 0.61873 0.482667 0.299917 -0.52863 0.299917 -0.52863 0.739744 0.261095
2.42e+09 0.621039 0.482117 0.297376 -0.527884 0.297376 -0.527884 0.742104 0.25884
2.43e+09 0.623333 0.481555 0.294853 -0.527126 0.294853 -0.527126 0.744445 0.256574
2.44e+09 0.625624 0.48099 0.292334 -0.526363 0.292334 -0.526363 0.746778 0.2543
2.45e+09 0.627891 0.480409 0.289842 -0.525582 0.289842 -0.525582 0.749069 0.252011
2.46e+09 0.630159 0.479827 0.287351 -0.524798 0.287351 -0.524798 0.751359 0.249715
2.47e+09 0.632405 0.479229 0.284885 -0.524 0.284885 -0.524 0.75362 0.247407
2.48e+09 0.634645 0.478627 0.282427 -0.523197 0.282427 -0.523197 0.755873 0.245091
2.49e+09 0.636874 0.478017 0.279983 -0.522384 0.279983 -0.522384 0.758108 0.242766
2.5e+09 0.639087 0.477397 0.277556 -0.521558 0.277556 -0.521558 0.760312 0.240429
