! Touchstone file generated by Optenni Lab on 2018-12-21T15:23:42
# Hz S DB R 50
! freq Sij(magDB angle)
1e+09 -1.64655 -37.6519 -10.8928 46.1561 -7.82198 19.543 
-10.8717 46.3942 -1.70438 6.75476 -7.74756 -143.716 
-7.82198 19.543 -7.74831 -143.844 -7.30386 -65.3106 
1.002e+09 -1.67218 -37.7926 -10.8846 45.7947 -7.7614 19.1747 
-10.8607 46.0194 -1.70461 6.68878 -7.75775 -144.289 
-7.7614 19.1747 -7.75996 -144.415 -7.40971 -65.7502 
1.004e+09 -1.69823 -37.9331 -10.8767 45.4324 -7.70084 18.8043 
-10.8503 45.6426 -1.70459 6.62381 -7.76801 -144.863 
-7.70082 18.8042 -7.77163 -144.988 -7.5174 -66.1959 
1.006e+09 -1.72474 -38.0733 -10.8693 45.0691 -7.64026 18.4316 
-10.8405 45.2634 -1.70429 6.55976 -7.77835 -145.441 
-7.64026 18.4316 -7.78337 -145.563 -7.62697 -66.648 
1.008e+09 -1.75169 -38.2132 -10.862 44.7047 -7.5797 18.0567 
-10.8311 44.882 -1.70377 6.49656 -7.78875 -146.021 
-7.5797 18.0567 -7.79512 -146.14 -7.73851 -67.1069 
1.01e+09 -1.77912 -38.3529 -10.8552 44.3391 -7.5191 17.6793 
-10.8224 44.4985 -1.70298 6.4341 -7.79922 -146.603 
-7.5191 17.6793 -7.8069 -146.718 -7.85212 -67.573 
1.012e+09 -1.80701 -38.4922 -10.8487 43.9724 -7.45849 17.2996 
-10.8142 44.1128 -1.70197 6.37232 -7.80975 -147.188 
-7.45849 17.2996 -7.8187 -147.298 -7.96783 -68.047 
1.014e+09 -1.83541 -38.6311 -10.8424 43.6042 -7.39783 16.9175 
-10.8065 43.7251 -1.70073 6.31114 -7.82037 -147.775 
-7.39783 16.9175 -7.83052 -147.881 -8.08574 -68.5291 
1.016e+09 -1.86431 -38.7696 -10.8366 43.2344 -7.33714 16.5327 
-10.7995 43.3353 -1.69924 6.25048 -7.83104 -148.365 
-7.33714 16.5327 -7.84232 -148.465 -8.20593 -69.0202 
1.018e+09 -1.89372 -38.9076 -10.8311 42.8632 -7.2764 16.1452 
-10.7931 42.9436 -1.69757 6.19034 -7.84176 -148.958 
-7.2764 16.1452 -7.85412 -149.052 -8.32848 -69.5204 
1.02e+09 -1.92368 -39.0452 -10.8258 42.4903 -7.21563 15.7551 
-10.7872 42.5499 -1.69567 6.1306 -7.8526 -149.554 
-7.21563 15.7551 -7.86592 -149.641 -8.45352 -70.0304 
1.022e+09 -1.95416 -39.1822 -10.821 42.1155 -7.15478 15.3619 
-10.7819 42.1542 -1.69356 6.07126 -7.86348 -150.152 
-7.15478 15.3619 -7.8777 -150.232 -8.58116 -70.5511 
1.024e+09 -1.98524 -39.3185 -10.8164 41.739 -7.09392 14.9658 
-10.7772 41.7564 -1.69127 6.01228 -7.87445 -150.754 
-7.09392 14.9658 -7.8895 -150.826 -8.71149 -71.0826 
1.026e+09 -2.01687 -39.4542 -10.8122 41.3602 -7.03296 14.5666 
-10.7731 41.3567 -1.68881 5.95364 -7.88547 -151.358 
-7.03296 14.5666 -7.90124 -151.422 -8.84461 -71.6261 
1.028e+09 -2.0491 -39.5891 -10.8084 40.9794 -6.97196 14.1643 
-10.7696 40.9549 -1.68616 5.89532 -7.89659 -151.965 
-6.97196 14.1643 -7.91301 -152.021 -8.98066 -72.182 
1.03e+09 -2.08195 -39.7231 -10.8049 40.5962 -6.91091 13.7585 
-10.7668 40.5515 -1.68335 5.83731 -7.90779 -152.575 
-6.91091 13.7585 -7.92475 -152.623 -9.11983 -72.7511 
1.032e+09 -2.11544 -39.8562 -10.8019 40.2105 -6.8498 13.3494 
-10.7646 40.1459 -1.68037 5.77958 -7.91908 -153.189 
-6.8498 13.3494 -7.93649 -153.228 -9.26218 -73.334 
1.034e+09 -2.14956 -39.9883 -10.7992 39.8222 -6.78865 12.9366 
-10.763 39.7384 -1.67724 5.72217 -7.93046 -153.805 
-6.78865 12.9366 -7.94821 -153.836 -9.40791 -73.9318 
1.036e+09 -2.18433 -40.1192 -10.797 39.4312 -6.72745 12.5202 
-10.762 39.3289 -1.67396 5.66507 -7.94195 -154.425 
-6.72745 12.5202 -7.95992 -154.447 -9.55713 -74.5453 
1.038e+09 -2.21981 -40.2488 -10.7952 39.0376 -6.66619 12.0999 
-10.7618 38.9175 -1.67054 5.60829 -7.95355 -155.049 
-6.66619 12.0999 -7.97164 -155.061 -9.7101 -75.1753 
1.04e+09 -2.25597 -40.377 -10.7938 38.6407 -6.60493 11.6757 
-10.7621 38.504 -1.66699 5.55186 -7.96522 -155.676 
-6.60493 11.6757 -7.98338 -155.679 -9.86693 -75.823 
1.042e+09 -2.29284 -40.5037 -10.793 38.2411 -6.54364 11.2474 
-10.7632 38.0887 -1.66328 5.49579 -7.97703 -156.306 
-6.54364 11.2474 -7.99512 -156.3 -10.0278 -76.4894 
1.044e+09 -2.33044 -40.6287 -10.7926 37.8383 -6.48232 10.815 
-10.7649 37.6711 -1.65945 5.44011 -7.98899 -156.94 
-6.48232 10.815 -8.00687 -156.925 -10.1929 -77.1756 
1.046e+09 -2.36879 -40.7519 -10.7928 37.4321 -6.42102 10.3782 
-10.7673 37.2516 -1.6555 5.38485 -8.00105 -157.577 
-6.42102 10.3782 -8.01871 -157.554 -10.3625 -77.8828 
1.048e+09 -2.4079 -40.8731 -10.7935 37.0226 -6.35972 9.93695 
-10.7704 36.8299 -1.6514 5.33003 -8.01327 -158.218 
-6.35972 9.93695 -8.03054 -158.187 -10.5369 -78.6124 
1.05e+09 -2.4478 -40.9921 -10.7949 36.6097 -6.29845 9.49117 
-10.7743 36.4063 -1.64719 5.27569 -8.02563 -158.864 
-6.29845 9.49116 -8.04245 -158.824 -10.7161 -79.3659 
1.052e+09 -2.48848 -41.1087 -10.7968 36.1932 -6.23722 9.04073 
-10.7789 35.9806 -1.64283 5.22186 -8.03818 -159.513 
-6.23722 9.04073 -8.05443 -159.465 -10.9005 -80.1448 
1.054e+09 -2.52997 -41.2227 -10.7994 35.7733 -6.17604 8.58552 
-10.7842 35.5524 -1.63834 5.16856 -8.05087 -160.165 
-6.17604 8.58552 -8.06652 -160.11 -11.0904 -80.9509 
1.056e+09 -2.57229 -41.334 -10.8027 35.3497 -6.11491 8.12541 
-10.7903 35.1225 -1.63371 5.11584 -8.06377 -160.822 
-6.11493 8.12541 -8.07871 -160.76 -11.286 -81.7859 
1.058e+09 -2.61544 -41.4423 -10.8068 34.9223 -6.05391 7.66033 
-10.7972 34.6901 -1.62894 5.06371 -8.07689 -161.483 
-6.05391 7.66033 -8.091 -161.414 -11.4876 -82.652 
1.06e+09 -2.65944 -41.5473 -10.8115 34.4912 -5.993 7.19016 
-10.8048 34.2559 -1.62402 5.01221 -8.09018 -162.149 
-5.993 7.19016 -8.10345 -162.072 -11.6955 -83.5514 
1.062e+09 -2.70429 -41.6489 -10.8171 34.0566 -5.93223 6.71484 
-10.8133 33.819 -1.61893 4.96135 -8.10373 -162.818 
-5.93223 6.71484 -8.11607 -162.736 -11.9101 -84.4866 
1.064e+09 -2.75002 -41.7468 -10.8236 33.6181 -5.8716 6.23425 
-10.8227 33.3803 -1.61369 4.91115 -8.11749 -163.492 
-5.8716 6.23425 -8.12885 -163.404 -12.1317 -85.4604 
1.066e+09 -2.79661 -41.8407 -10.8309 33.176 -5.81115 5.74835 
-10.8329 32.9391 -1.60828 4.86163 -8.13155 -164.17 
-5.81115 5.74835 -8.14183 -164.077 -12.3606 -86.4758 
1.068e+09 -2.84409 -41.9303 -10.8391 32.7298 -5.75089 5.25701 
-10.8439 32.4957 -1.60266 4.81278 -8.14584 -164.853 
-5.75089 5.25701 -8.15503 -164.755 -12.5973 -87.5363 
1.07e+09 -2.89246 -42.0153 -10.8483 32.2803 -5.69084 4.76023 
-10.8559 32.0501 -1.59686 4.76462 -8.16046 -165.54 
-5.69084 4.76023 -8.16851 -165.438 -12.8421 -88.6457 
1.072e+09 -2.94173 -42.0955 -10.8585 31.8269 -5.63106 4.25791 
-10.8689 31.6024 -1.59086 4.71714 -8.17538 -166.231 
-5.63106 4.2579 -8.18225 -166.127 -13.0954 -89.8083 
1.074e+09 -2.9919 -42.1706 -10.8697 31.37 -5.57153 3.75002 
-10.8828 31.1522 -1.58465 4.67034 -8.19061 -166.927 
-5.57153 3.75002 -8.19627 -166.82 -13.3577 -91.0289 
1.076e+09 -3.04296 -42.2402 -10.882 30.9095 -5.51231 3.2365 
-10.8976 30.6999 -1.57821 4.62417 -8.20616 -167.628 
-5.51231 3.2365 -8.21063 -167.518 -13.6294 -92.3131 
1.078e+09 -3.09492 -42.304 -10.8955 30.4455 -5.4534 2.71733 
-10.9135 30.2455 -1.57152 4.57864 -8.2221 -168.333 
-5.4534 2.71732 -8.22531 -168.222 -13.9108 -93.667 
1.08e+09 -3.14776 -42.3616 -10.9101 29.9781 -5.39483 2.19247 
-10.9304 29.7888 -1.56459 4.53369 -8.23845 -169.043 
-5.39483 2.19247 -8.2404 -168.931 -14.2026 -95.0976 
1.082e+09 -3.20151 -42.4128 -10.9259 29.5074 -5.33667 1.66191 
-10.9484 29.3298 -1.55739 4.48929 -8.25515 -169.758 
-5.33667 1.6619 -8.25585 -169.646 -14.505 -96.6128 
1.084e+09 -3.25611 -42.4571 -10.943 29.0337 -5.27888 1.12563 
-10.9675 28.8687 -1.54993 4.44538 -8.27229 -170.478 
-5.27888 1.12563 -8.27175 -170.366 -14.8185 -98.2219 
1.086e+09 -3.31161 -42.4942 -10.9613 28.5568 -5.22151 0.583633 
-10.9877 28.4056 -1.54216 4.40191 -8.28985 -171.202 
-5.22151 0.583627 -8.28807 -171.091 -15.1435 -99.9352 
1.088e+09 -3.36792 -42.5237 -10.9811 28.077 -5.16462 0.0359189 
-11.0091 27.9404 -1.53409 4.3588 -8.3079 -171.931 
-5.16462 0.0359141 -8.3049 -171.821 -15.4802 -101.765 
1.09e+09 -3.4251 -42.5453 -11.0022 27.5945 -5.1082 -0.5175 
-11.0317 27.4733 -1.52571 4.31599 -8.32642 -172.665 
-5.1082 -0.517505 -8.3222 -172.557 -15.8288 -103.724 
1.092e+09 -3.48308 -42.5584 -11.0247 27.1093 -5.0523 -1.0766 
-11.0556 27.0043 -1.51701 4.27339 -8.34543 -173.404 
-5.0523 -1.07661 -8.34006 -173.299 -16.1893 -105.829 
1.094e+09 -3.54186 -42.5629 -11.0487 26.6219 -4.99693 -1.64137 
-11.0807 26.5335 -1.50798 4.2309 -8.36499 -174.147 
-4.99693 -1.64137 -8.35845 -174.045 -16.5616 -108.096 
1.096e+09 -3.6014 -42.5582 -11.0742 26.1322 -4.94213 -2.21174 
-11.1071 26.0609 -1.49859 4.18843 -8.38508 -174.896 
-4.94213 -2.21174 -8.37748 -174.797 -16.9453 -110.547 
1.098e+09 -3.66168 -42.5439 -11.1012 25.6403 -4.88791 -2.7877 
-11.1348 25.5869 -1.48885 4.14587 -8.40572 -175.649 
-4.88791 -2.7877 -8.39706 -175.555 -17.3392 -113.205 
1.1e+09 -3.72266 -42.5197 -11.1299 25.1469 -4.83434 -3.36919 
-11.164 25.111 -1.47876 4.10311 -8.42696 -176.407 
-4.83434 -3.3692 -8.41731 -176.317 -17.742 -116.094 
1.102e+09 -3.78429 -42.4851 -11.1601 24.6515 -4.78139 -3.95614 
-11.1945 24.6339 -1.46829 4.06002 -8.44881 -177.17 
-4.78139 -3.95614 -8.43821 -177.085 -18.1513 -119.243 
1.104e+09 -3.84656 -42.4398 -11.1921 24.155 -4.72912 -4.54849 
-11.2265 24.1554 -1.45745 4.01649 -8.47127 -177.937 
-4.72912 -4.5485 -8.4598 -177.858 -18.564 -122.683 
1.106e+09 -3.9094 -42.3833 -11.2257 23.6574 -4.67755 -5.14617 
-11.26 23.6758 -1.44623 3.97239 -8.49441 -178.71 
-4.67755 -5.14618 -8.48212 -178.636 -18.9753 -126.443 
1.108e+09 -3.97277 -42.3152 -11.2611 23.1588 -4.62671 -5.74913 
-11.295 23.1951 -1.43462 3.92757 -8.51822 -179.487 
-4.62671 -5.74913 -8.50516 -179.42 -19.3794 -130.555 
1.11e+09 -4.0366 -42.2351 -11.2982 22.6597 -4.57662 -6.35724 
-11.3316 22.7137 -1.42264 3.8819 -8.54271 179.732 
-4.57662 -6.35725 -8.52898 179.792 -19.7679 -135.043 
1.112e+09 -4.10084 -42.1426 -11.3371 22.1603 -4.5273 -6.97043 
-11.3698 22.2317 -1.41026 3.83524 -8.56792 178.946 
-4.5273 -6.97043 -8.55361 178.999 -20.1312 -139.927 
1.114e+09 -4.16543 -42.0374 -11.378 21.6609 -4.47879 -7.58859 
-11.4097 21.7491 -1.3975 3.78743 -8.59389 178.155 
-4.47879 -7.5886 -8.57902 178.201 -20.4572 -145.21 
1.116e+09 -4.23031 -41.9191 -11.4207 21.1617 -4.43109 -8.21164 
-11.4512 21.2663 -1.38436 3.73837 -8.62059 177.359 
-4.43109 -8.21164 -8.60528 177.399 -20.7328 -150.874 
1.118e+09 -4.29539 -41.7872 -11.4653 20.6631 -4.38423 -8.83945 
-11.4945 20.7834 -1.37083 3.68787 -8.64806 176.559 
-4.38423 -8.83946 -8.63237 176.591 -20.9443 -156.876 
1.12e+09 -4.3606 -41.6415 -11.5119 20.1654 -4.33825 -9.47191 
-11.5395 20.3007 -1.35693 3.63581 -8.67634 175.755 
-4.33825 -9.47191 -8.66036 175.78 -21.0792 -163.143 
1.122e+09 -4.42583 -41.4818 -11.5604 19.6689 -4.29315 -10.1089 
-11.5864 19.8184 -1.34267 3.58203 -8.70544 174.947 
-4.29315 -10.1089 -8.68927 174.963 -21.1281 -169.577 
1.124e+09 -4.49103 -41.3074 -11.611 19.1739 -4.24897 -10.7503 
-11.6351 19.3368 -1.32804 3.5264 -8.73538 174.134 
-4.24897 -10.7503 -8.71909 174.143 -21.0864 -176.058 
1.126e+09 -4.55608 -41.1183 -11.6636 18.6808 -4.20571 -11.3959 
-11.6857 18.8561 -1.31306 3.46878 -8.76618 173.317 
-4.20571 -11.3959 -8.74985 173.318 -20.9548 177.538 
1.128e+09 -4.62091 -40.9142 -11.7183 18.1899 -4.16341 -12.0457 
-11.7383 18.3766 -1.29775 3.40903 -8.79784 172.496 
-4.16341 -12.0457 -8.78155 172.489 -20.7398 171.323 
1.13e+09 -4.68539 -40.6948 -11.7751 17.7017 -4.12207 -12.6995 
-11.7928 17.8986 -1.2821 3.34701 -8.83041 171.67 
-4.12207 -12.6995 -8.81425 171.656 -20.4519 165.391 
1.132e+09 -4.74942 -40.4602 -11.834 17.2164 -4.08171 -13.3572 
-11.8493 17.4225 -1.26614 3.28261 -8.86389 170.841 
-4.08171 -13.3572 -8.84794 170.819 -20.1042 159.804 
1.134e+09 -4.81287 -40.2098 -11.8951 16.7345 -4.04238 -14.0186 
-11.9079 16.9485 -1.24989 3.21571 -8.8983 170.008 
-4.04238 -14.0186 -8.88265 169.979 -19.7104 154.598 
1.136e+09 -4.87566 -39.9434 -11.9585 16.2564 -4.00405 -14.6835 
-11.9686 16.477 -1.23334 3.14617 -8.93369 169.172 
-4.00405 -14.6835 -8.91835 169.135 -19.2835 149.782 
1.138e+09 -4.93765 -39.6617 -12.0239 15.7825 -3.96677 -15.3519 
-12.0314 16.0083 -1.21654 3.07391 -8.97001 168.331 
-3.96677 -15.3519 -8.95514 168.287 -18.8347 145.348 
1.14e+09 -4.9987 -39.3639 -12.0917 15.3131 -3.93054 -16.0235 
-12.0964 15.5429 -1.19948 2.99881 -9.00731 167.487 
-3.93054 -16.0235 -8.99293 167.436 -18.3735 141.276 
1.142e+09 -5.05869 -39.0504 -12.1617 14.8487 -3.89537 -16.6981 
-12.1636 15.081 -1.1822 2.92079 -9.04562 166.64 
-3.89537 -16.6981 -9.03185 166.582 -17.9073 137.536 
1.144e+09 -5.11752 -38.7211 -12.234 14.3898 -3.86128 -17.3758 
-12.2331 14.6232 -1.1647 2.83975 -9.08492 165.789 
-3.86128 -17.3758 -9.07181 165.725 -17.4418 134.1 
1.146e+09 -5.17503 -38.3761 -12.3086 13.9368 -3.82829 -18.0561 
-12.3048 14.1699 -1.14701 2.75562 -9.12527 164.935 
-3.82828 -18.0562 -9.11287 164.865 -16.9811 130.936 
1.148e+09 -5.23109 -38.0158 -12.3855 13.4901 -3.79639 -18.7392 
-12.3789 13.7214 -1.12916 2.66833 -9.16666 164.078 
-3.79639 -18.7392 -9.15506 164.003 -16.5282 128.014 
1.15e+09 -5.28557 -37.6402 -12.4649 13.0503 -3.7656 -19.4246 
-12.4554 13.2784 -1.11115 2.57783 -9.20909 163.218 
-3.7656 -19.4246 -9.19834 163.137 -16.0852 125.308 
1.152e+09 -5.33833 -37.2498 -12.5465 12.6178 -3.73595 -20.1123 
-12.5343 12.8412 -1.09304 2.48405 -9.2526 162.355 
-3.73595 -20.1123 -9.24273 162.269 -15.6534 122.792 
1.154e+09 -5.38924 -36.8448 -12.6306 12.1932 -3.70741 -20.8021 
-12.6155 12.4103 -1.07481 2.38697 -9.29722 161.489 
-3.70741 -20.8021 -9.28826 161.399 -15.2335 120.445 
1.156e+09 -5.43817 -36.4257 -12.717 11.7768 -3.68005 -21.4937 
-12.6993 11.9864 -1.0565 2.28654 -9.3429 160.621 
-3.68005 -21.4937 -9.33496 160.527 -14.8261 118.248 
1.158e+09 -5.48496 -35.993 -12.8059 11.3694 -3.65381 -22.1872 
-12.7856 11.5699 -1.03813 2.18275 -9.38967 159.75 
-3.65381 -22.1872 -9.38278 159.652 -14.4313 116.182 
1.16e+09 -5.52954 -35.5473 -12.8972 10.9713 -3.62873 -22.8822 
-12.8744 11.1614 -1.01973 2.07557 -9.43759 158.877 
-3.62873 -22.8822 -9.43171 158.776 -14.049 114.234 
1.162e+09 -5.57173 -35.0891 -12.991 10.5833 -3.6048 -23.5786 
-12.9657 10.7615 -1.00132 1.96502 -9.48658 158.001 
-3.6048 -23.5786 -9.48184 157.898 -13.6791 112.391 
1.164e+09 -5.61143 -34.6194 -13.0873 10.2058 -3.58205 -24.2762 
-13.0597 10.3708 -0.982912 1.85108 -9.53675 157.124 
-3.58205 -24.2762 -9.53314 157.018 -13.3213 110.641 
1.166e+09 -5.64855 -34.1385 -13.186 9.83938 -3.56047 -24.9749 
-13.1563 9.99004 -0.964552 1.73377 -9.58806 156.244 
-3.56047 -24.9749 -9.58557 156.137 -12.9752 108.974 
1.168e+09 -5.68295 -33.6477 -13.2873 9.4848 -3.54006 -25.6744 
-13.2555 9.61984 -0.94622 1.61311 -9.6405 155.363 
-3.54006 -25.6744 -9.63919 155.255 -12.6404 107.382 
1.17e+09 -5.71455 -33.1476 -13.391 9.14263 -3.52084 -26.3746 
-13.3574 9.26086 -0.927981 1.48913 -9.69411 154.48 
-3.52084 -26.3746 -9.69394 154.371 -12.3166 105.858 
1.172e+09 -5.74325 -32.639 -13.4972 8.81355 -3.5028 -27.0753 
-13.462 8.9139 -0.90982 1.36187 -9.74884 153.596 
-3.5028 -27.0753 -9.74989 153.487 -12.0033 104.394 
1.174e+09 -5.76899 -32.1232 -13.606 8.49819 -3.48593 -27.7763 
-13.5693 8.57965 -0.891783 1.23137 -9.8048 152.71 
-3.48593 -27.7763 -9.80699 152.601 -11.7002 102.985 
1.176e+09 -5.79168 -31.601 -13.7173 8.19733 -3.47022 -28.4775 
-13.6794 8.259 -0.873884 1.09767 -9.86188 151.822 
-3.47022 -28.4775 -9.86523 151.715 -11.4069 101.626 
1.178e+09 -5.81126 -31.0734 -13.831 7.91161 -3.4557 -29.1787 
-13.7922 7.95269 -0.856128 0.960838 -9.92016 150.934 
-3.45571 -29.1787 -9.92469 150.829 -11.1228 100.312 
1.18e+09 -5.8277 -30.5416 -13.9474 7.64184 -3.44238 -29.8796 
-13.9078 7.66161 -0.838539 0.820928 -9.97962 150.045 
-3.44238 -29.8796 -9.98528 149.942 -10.8479 99.0399 
1.182e+09 -5.84095 -30.0068 -14.0662 7.38879 -3.43021 -30.5802 
-14.0262 7.38668 -0.821151 0.678017 -10.0402 149.155 
-3.43021 -30.5802 -10.047 149.054 -10.5815 97.8056 
1.184e+09 -5.85096 -29.47 -14.1875 7.15331 -3.41923 -31.2802 
-14.1472 7.12875 -0.803939 0.532164 -10.1021 148.264 
-3.41923 -31.2802 -10.1099 148.167 -10.3234 96.6061 
1.186e+09 -5.85778 -28.9323 -14.3113 6.93615 -3.40941 -31.9795 
-14.2711 6.88888 -0.786956 0.383455 -10.1651 147.373 
-3.40941 -31.9795 -10.174 147.279 -10.0733 95.4387 
1.188e+09 -5.86135 -28.3949 -14.4377 6.73827 -3.40076 -32.6779 
-14.3978 6.66802 -0.770216 0.231968 -10.2292 146.481 
-3.40076 -32.6779 -10.2392 146.391 -9.83083 94.301 
1.19e+09 -5.86172 -27.859 -14.5664 6.5605 -3.39327 -33.3752 
-14.5272 6.46725 -0.753704 0.0777858 -10.2946 145.589 
-3.39327 -33.3752 -10.3055 145.504 -9.59574 93.1908 
1.192e+09 -5.85889 -27.3255 -14.6976 6.40387 -3.38693 -34.0713 
-14.6593 6.28762 -0.737444 -0.0790051 -10.3612 144.697 
-3.38693 -34.0713 -10.373 144.617 -9.3677 92.106 
1.194e+09 -5.85292 -26.7958 -14.8312 6.26924 -3.38173 -34.7659 
-14.7942 6.13033 -0.721459 -0.238315 -10.4289 143.806 
-3.38173 -34.7659 -10.4416 143.731 -9.14645 91.0451 
1.196e+09 -5.84384 -26.2707 -14.9672 6.15778 -3.37769 -35.459 
-14.9318 5.99653 -0.705735 -0.400054 -10.4978 142.914 
-3.37769 -35.459 -10.5113 142.845 -8.93176 90.0063 
1.198e+09 -5.83172 -25.7515 -15.1055 6.07035 -3.37477 -36.1504 
-15.0719 5.88739 -0.690314 -0.56413 -10.5678 142.023 
-3.37477 -36.1504 -10.5821 141.96 -8.7234 88.9884 
1.2e+09 -5.81661 -25.2389 -15.2461 6.00819 -3.37297 -36.8398 
-15.2147 5.80422 -0.675182 -0.730452 -10.6391 141.132 
-3.37297 -36.8398 -10.6541 141.076 -8.52114 87.99 
1.202e+09 -5.79864 -24.7341 -15.389 5.97235 -3.37229 -37.5272 
-15.36 5.74832 -0.660345 -0.898922 -10.7115 140.241 
-3.37229 -37.5272 -10.7271 140.193 -8.32471 87.0101 
1.204e+09 -5.77783 -24.2379 -15.534 5.96397 -3.37272 -38.2124 
-15.5078 5.72103 -0.645824 -1.06945 -10.785 139.352 
-3.37272 -38.2124 -10.8012 139.311 -8.13398 86.0475 
1.206e+09 -5.75433 -23.7512 -15.6811 5.98435 -3.37422 -38.8951 
-15.6581 5.7238 -0.631598 -1.24194 -10.8597 138.463 
-3.37422 -38.8951 -10.8764 138.43 -7.94874 85.1014 
1.208e+09 -5.72821 -23.2748 -15.8303 6.03467 -3.37683 -39.5754 
-15.8105 5.75804 -0.617699 -1.41631 -10.9356 137.576 
-3.37683 -39.5754 -10.9526 137.55 -7.76874 84.171 
1.21e+09 -5.6996 -22.8093 -15.9813 6.11621 -3.3805 -40.2529 
-15.9652 5.82524 -0.604115 -1.59245 -11.0125 136.69 
-3.3805 -40.2529 -11.0299 136.672 -7.59389 83.2554 
1.212e+09 -5.6686 -22.3554 -16.1343 6.23031 -3.38523 -40.9276 
-16.122 5.92685 -0.59085 -1.77029 -11.0906 135.805 
-3.38523 -40.9276 -11.1083 135.795 -7.42397 82.3541 
1.214e+09 -5.63535 -21.9141 -16.2889 6.37829 -3.39101 -41.5994 
-16.2807 6.06456 -0.57792 -1.94973 -11.1698 134.921 
-3.39101 -41.5994 -11.1876 134.92 -7.25883 81.4663 
1.216e+09 -5.59995 -21.4854 -16.445 6.56155 -3.3978 -42.268 
-16.4412 6.23984 -0.565303 -2.1307 -11.2502 134.039 
-3.3978 -42.268 -11.268 134.046 -7.09834 80.5916 
1.218e+09 -5.56254 -21.0701 -16.6026 6.78159 -3.40563 -42.9333 
-16.6033 6.45434 -0.553022 -2.3131 -11.3315 133.159 
-3.40563 -42.9333 -11.3494 133.174 -6.94233 79.7294 
1.22e+09 -5.52323 -20.6685 -16.7614 7.03972 -3.41445 -43.5952 
-16.7668 6.70971 -0.541056 -2.49686 -11.414 132.28 
-3.41445 -43.5952 -11.4317 132.304 -6.79068 78.8792 
1.222e+09 -5.48217 -20.281 -16.9212 7.33739 -3.42426 -44.2536 
-16.9314 7.00751 -0.529421 -2.6819 -11.4975 131.404 
-3.42426 -44.2536 -11.515 131.436 -6.64325 78.0407 
1.224e+09 -5.4395 -19.908 -17.0819 7.6762 -3.43504 -44.9084 
-17.097 7.34943 -0.518096 -2.86814 -11.5821 130.53 
-3.43504 -44.9084 -11.5992 130.57 -6.4999 77.2134 
1.226e+09 -5.39533 -19.5494 -17.2432 8.05743 -3.44678 -45.5593 
-17.2632 7.73703 -0.507104 -3.05552 -11.6677 129.657 
-3.44678 -45.5593 -11.6844 129.706 -6.36051 76.3972 
1.228e+09 -5.34977 -19.2057 -17.4048 8.48267 -3.45944 -46.2063 
-17.4297 8.17185 -0.496427 -3.24396 -11.7543 128.787 
-3.45944 -46.2063 -11.7706 128.844 -6.22498 75.5915 
1.23e+09 -5.30296 -18.8769 -17.5664 8.95315 -3.47303 -46.8493 
-17.5962 8.65543 -0.48606 -3.43341 -11.8419 127.92 
-3.47303 -46.8493 -11.8576 127.985 -6.09319 74.7961 
1.232e+09 -5.25503 -18.5631 -17.7279 9.47044 -3.48753 -47.4881 
-17.7624 9.18917 -0.47602 -3.6238 -11.9305 127.055 
-3.48753 -47.4881 -11.9455 127.127 -5.96504 74.0107 
1.234e+09 -5.2061 -18.2644 -17.8886 10.0357 -3.50288 -48.1227 
-17.9278 9.77452 -0.466278 -3.81508 -12.02 126.192 
-3.50288 -48.1227 -12.0343 126.272 -5.84039 73.2351 
